(45.440000) can0 448#480100000000FFFF
(45.450000) can0 44B#4B0100000000FFFF
(45.540000) can0 008#F37F070000000000
(45.540000) can0 009#FCFF0F3330000000
(45.560000) can0 448#4B0200000000FFFF
(45.600000) can0 180#FCFCFCFCFFFFFFFF
(45.640000) can0 147#0000000000000000
(45.680000) can0 183#060A0A0A0A0AFFFF
(45.720000) can0 183#060A0A0A0A0AFFFF
(45.760000) can0 080#FFFF3505FFFF0A1E
(45.800000) can0 008#F37F070000000000
(45.840000) can0 147#0000000000000000
(45.880000) can0 440#480200000000FFFF
(45.920000) can0 085#2D1414141414FFFF
(45.960000) can0 448#4B0200000000FFFF
(46.000000) can0 085#2D1414141414FFFF
(46.040000) can0 147#0000000000000000
(46.090000) can0 008#F37F070000000000
(46.130000) can0 440#480200000000FFFF
(46.170000) can0 008#F37F070000000000
(46.210000) can0 145#0000000000000000
(46.250000) can0 448#4B0200000000FFFF
(46.290000) can0 008#F37F070000000000
(46.330000) can0 44B#400200000000FFFF
(46.370000) can0 008#F37F070000000000
(46.410000) can0 145#0000000000000000
(46.450000) can0 440#480200000000FFFF
(46.490000) can0 173#FDFF1F0000000000
(46.530000) can0 448#4B0200000000FFFF
(46.570000) can0 181#F1FCFDCCFAFFFFFF
(46.610000) can0 541#FFFFFF0F00000000
(46.650000) can0 183#0E0A0A0A0A0AFFFF
(46.690000) can0 008#F37F070000000000
(46.730000) can0 183#0E0A0A0A0A0A00FF
(46.770000) can0 183#0E0A0A0A0A0A00FF
(46.810000) can0 145#0000000000000000
(46.860000) can0 147#0000000000000000
(46.900000) can0 008#F37F070000000000
(46.940000) can0 44B#400200000000FFFF
(46.980000) can0 008#F37F070000000000
(47.020000) can0 440#480200000000FFFF
(47.060000) can0 147#0000000000000000
(47.100000) can0 008#F37F070000000000
(47.140000) can0 448#4B0200000000FFFF
(47.180000) can0 008#F37F070000000000
(47.220000) can0 44B#400200000000FFFF
(47.260000) can0 147#0000000000000000
(47.300000) can0 008#F37F070000000000
(47.340000) can0 440#480200000000FFFF
(47.380000) can0 008#F37F070000000000
(47.420000) can0 448#4B0200000000FFFF
(47.460000) can0 147#0000000000000000
(47.500000) can0 173#FDFF1F0000000000
(47.540000) can0 44B#400200000000FFFF
(47.590000) can0 009#FCFF0F3330000000
(47.630000) can0 146#0000000000000000
(47.670000) can0 183#0E0A0A0A0A0A00FF
(47.710000) can0 008#F37F070000000000
(47.750000) can0 448#4B0200000000FFFF
(47.790000) can0 008#F37F070000000000
(47.830000) can0 147#0000000000000000
(47.870000) can0 504#0001000000000000
(47.910000) can0 440#480200000000FFFF
(47.950000) can0 008#F37F070000000000
(47.990000) can0 448#4B0200000000FFFF
(48.030000) can0 147#0000000000000000
(48.070000) can0 008#F37F070000000000
(48.110000) can0 44B#400200000000FFFF
(48.150000) can0 008#F37F070000000000
(48.190000) can0 440#480200000000FFFF
(48.230000) can0 147#0000000000000000
(48.280000) can0 448#4B0200000000FFFF
(48.310000) can0 008#F37F070000000000
(48.360000) can0 44B#400200000000FFFF
(48.400000) can0 580#5AA65596FAFEFFFF
(48.440000) can0 147#0000000000000000
(48.480000) can0 008#F37F070000000000
(48.520000) can0 173#FDFF1F0000000000
(48.560000) can0 448#4B0200000000FFFF
(48.600000) can0 580#5AA65596FAFEFFFF
(48.640000) can0 147#0000000000000000
(48.680000) can0 008#F37F070000000000
(48.720000) can0 440#480200000000FFFF
(48.760000) can0 008#F37F070000000000
(48.800000) can0 580#5AA65596FAFEFFFF
(48.840000) can0 448#4B0200000000FFFF
(48.880000) can0 008#F37F070000000000
(48.920000) can0 44B#400200000000FFFF
(48.960000) can0 008#F37F070000000000
(49.010000) can0 145#0000000000000000
(49.040000) can0 440#480200000000FFFF
(49.090000) can0 008#F37F070000000000
(49.130000) can0 448#4B0200000000FFFF
(49.170000) can0 008#F37F070000000000
(49.210000) can0 44B#400200000000FFFF
(49.250000) can0 147#0000000000000000
(49.290000) can0 008#F37F070000000000
(49.330000) can0 440#480200000000FFFF
(49.370000) can0 008#F37F070000000000
(49.410000) can0 448#4B0200000000FFFF
(49.450000) can0 147#0000000000000000
(49.490000) can0 173#FDFF1F0000000000
(49.530000) can0 44B#400200000000FFFF
(49.570000) can0 008#F37F070000000000
(49.610000) can0 181#F0FCFCCCFAFFFFFF
(49.650000) can0 147#0000000000000000
(49.690000) can0 008#F37F070000000000
(49.740000) can0 448#4B0200000000FFFF
(49.780000) can0 008#F37F070000000000
(49.820000) can0 44B#400200000000FFFF
(49.860000) can0 147#0000000000000000
(49.900000) can0 008#F37F070000000000
(49.940000) can0 440#480200000000FFFF
(49.980000) can0 008#F37F070000000000
(50.020000) can0 145#0000000000000000
(50.060000) can0 147#0000000000000000
(50.100000) can0 008#F37F070000000000
(50.140000) can0 44B#400200000000FFFF
(50.180000) can0 008#F37F070000000000
(50.220000) can0 440#480200000000FFFF
(50.260000) can0 147#0000000000000000
(50.300000) can0 448#4B0200000000FFFF
(50.340000) can0 008#F37F070000000000
(50.380000) can0 580#5AA65596FAFEFFFF
(50.420000) can0 147#0000000000000000
(50.470000) can0 008#F37F070000000000
(50.510000) can0 440#480200000000FFFF
(50.550000) can0 008#F37F070000000000
(50.590000) can0 580#5AA65596FAFEFFFF
(50.630000) can0 147#0000000000000000
(50.670000) can0 00F#0E0A0A0A0A0A0000
(50.710000) can0 44B#400200000000FFFF
(50.750000) can0 008#F37F070000000000
(50.790000) can0 580#5AA65596FAFEFFFF
(50.830000) can0 147#0000000000000000
(50.870000) can0 448#4B0200000000FFFF
(50.910000) can0 008#F37F070000000000
(50.950000) can0 44B#400200000000FFFF
(50.990000) can0 580#5AA65596FAFEFFFF
(51.030000) can0 147#0000000000000000
(51.070000) can0 008#F37F070000000000
(51.110000) can0 448#4B0200000000FFFF
(51.150000) can0 008#F37F070000000000
(51.200000) can0 580#5AA65596FAFEFFFF
(51.240000) can0 44B#400200000000FFFF
(51.280000) can0 008#F37F070000000000
(51.320000) can0 440#480200000000FFFF
(51.360000) can0 008#F37F070000000000
(51.400000) can0 580#5AA65596FAFEFFFF
(51.440000) can0 147#0000000000000000
(51.480000) can0 173#FDFF1F0000000000
(51.520000) can0 44B#400200000000FFFF
(51.560000) can0 145#070100FF00000000
(51.600000) can0 181#F0FCFCCCFAFFFFFF
(51.640000) can0 147#0000000000000000
(51.680000) can0 008#F37F070000000000
(51.720000) can0 448#4B0200000000FFFF
(51.760000) can0 008#F37F070000000000
(51.800000) can0 145#070100FF00000000
(51.840000) can0 147#0000000000000000
(51.880000) can0 008#F37F070000000000
(51.920000) can0 440#480200000000FFFF
(51.970000) can0 008#F37F070000000000
(52.010000) can0 145#070100FF00000000
(52.050000) can0 147#0000000000000000
(52.090000) can0 44B#400200000000FFFF
(52.130000) can0 440#480200000000FFFF
(52.170000) can0 008#F37F070000000000
(52.210000) can0 145#070100FF00000000
(52.250000) can0 147#0000000000000000
(52.290000) can0 448#4B0200000000FFFF
(52.330000) can0 440#480200000000FFFF
(52.370000) can0 008#F37F070000000000
(52.410000) can0 145#070100FF00000000
(52.450000) can0 040#FFFFFF0300000000
(52.490000) can0 040#0CFCFF0300000000
(52.530000) can0 040#0CFCFF0300000000
(52.570000) can0 448#4B0200000000FFFF
(52.620000) can0 541#FF0A0F0F00000000
(52.650000) can0 147#0000000000000000
(52.700000) can0 44B#400200000000FFFF
(52.740000) can0 008#F37F070000000000
(52.780000) can0 580#5AA65596FAFEFFFF
(52.820000) can0 145#070100FF00000000
(52.860000) can0 147#0000000000000000
(52.900000) can0 448#4B0200000000FFFF
(52.940000) can0 008#F37F070000000000
(52.980000) can0 580#5AA65596FAFEFFFF
(53.020000) can0 145#070100FF00000000
(53.060000) can0 147#0000000000000000
(53.100000) can0 440#480200000000FFFF
(53.140000) can0 008#F37F070000000000
(53.180000) can0 580#5AA65596FAFEFFFF
(53.220000) can0 147#0000000000000000
(53.260000) can0 44B#400200000000FFFF
(53.300000) can0 008#F37F070000000000
(53.350000) can0 440#480200000000FFFF
(53.380000) can0 580#5AA65596FAFEFFFF
(53.430000) can0 147#0000000000000000
(53.470000) can0 448#4B0200000000FFFF
(53.510000) can0 173#FDFF1F0000000000
(53.550000) can0 44B#400200000000FFFF
(53.590000) can0 180#FCFCFCFCFFFFFFFF
(53.630000) can0 147#0000000000000000
(53.670000) can0 00F#0E0A0A0A0A0A0000
(53.710000) can0 008#F37F070000000000
(53.750000) can0 448#4B0200000000FFFF
(53.790000) can0 040#FFFFFF0300000000
(53.830000) can0 44B#400200000000FFFF
(53.870000) can0 008#F37F070000000000
(53.910000) can0 040#0FFEFF0300000000
(53.950000) can0 040#FFFFFF0300000000
(53.990000) can0 040#0FFEFF0300000000
(54.030000) can0 147#0000000000000000
(54.080000) can0 008#F37F070000000000
(54.120000) can0 44B#400200000000FFFF
(54.160000) can0 040#0FFEFF0300000000
(54.200000) can0 040#0FFEFF0300000000
(54.240000) can0 147#0000000000000000
(54.280000) can0 008#F37F070000000000
(54.320000) can0 145#010100FF00000000
(54.360000) can0 145#010100FF00000000
(54.400000) can0 44B#400200000000FFFF
(54.440000) can0 147#0000000000000000
(54.480000) can0 173#FDFF1F0000000000
(54.520000) can0 040#F9FFFF0300000000
(54.560000) can0 040#F9FFFF0300000000
(54.600000) can0 145#010100FF00000000
(54.640000) can0 147#0000000000000000
(54.680000) can0 44B#400200000000FFFF
(54.720000) can0 040#F9FFFF0300000000
(54.760000) can0 040#FFFFFF0300000000
(54.810000) can0 145#010100FF00000000
(54.850000) can0 147#0000000000000000
(54.890000) can0 448#4B0200000000FFFF
(54.930000) can0 580#5AA65596FAFEFFFF
(54.970000) can0 008#F37F070000000000
(55.010000) can0 145#010100FF00000000
(55.050000) can0 147#0000000000000000
(55.090000) can0 440#480200000000FFFF
(55.130000) can0 580#5AA65596FAFEFFFF
(55.170000) can0 008#F37F070000000000
(55.210000) can0 145#010100FF00000000
(55.250000) can0 147#0000000000000000
(55.290000) can0 44B#400200000000FFFF
(55.330000) can0 580#5AA65596FAFEFFFF
(55.370000) can0 008#F37F070000000000
(55.410000) can0 145#010100FF00000000
(55.450000) can0 147#0000000000000000
(55.490000) can0 448#4B0200000000FFFF
(55.540000) can0 580#5AA65596FAFEFFFF
(55.580000) can0 180#FCFCFCFCFFFFFFFF
(55.620000) can0 541#FB0A0F0F00000000
(55.660000) can0 147#0000000000000000
(55.700000) can0 440#480200000000FFFF
(55.740000) can0 448#4B0200000000FFFF
(55.780000) can0 008#F37F070000000000
(55.820000) can0 145#010100FF00000000
(55.860000) can0 44B#400200000000FFFF
(55.900000) can0 008#F37F070000000000
(55.940000) can0 440#480200000000FFFF
(55.980000) can0 008#F37F070000000000
(56.020000) can0 147#0000000000000000
(56.060000) can0 448#4B0200000000FFFF
(56.100000) can0 008#F37F070000000000
(56.140000) can0 44B#400200000000FFFF
(56.180000) can0 008#F37F070000000000
(56.220000) can0 147#0000000000000000
(56.270000) can0 008#F37F070000000000
(56.310000) can0 448#4B0200000000FFFF
(56.350000) can0 580#5AA65596FAFEFFFF
(56.390000) can0 008#F37F070000000000
(56.430000) can0 147#0000000000000000
(56.470000) can0 173#FDFF1F0000000000
(56.510000) can0 440#480200000000FFFF
(56.550000) can0 580#5AA65596FAFEFFFF
(56.590000) can0 181#F0FCFCCCFAFFFFFF
(56.630000) can0 147#0000000000000000
(56.670000) can0 008#F37F070000000000
(56.710000) can0 44B#400200000000FFFF
(56.750000) can0 580#5AA65596FAFEFFFF
(56.790000) can0 440#480200000000FFFF
(56.830000) can0 147#0000000000000000
(56.870000) can0 008#F37F070000000000
(56.910000) can0 448#4B0200000000FFFF
(56.950000) can0 580#5AA65596FAFEFFFF
(57.000000) can0 44B#400200000000FFFF
(57.040000) can0 147#0000000000000000
(57.080000) can0 440#480200000000FFFF
(57.120000) can0 448#4B0200000000FFFF
(57.160000) can0 580#5AA65596FAFEFFFF
(57.200000) can0 008#F37F070000000000
(57.240000) can0 147#0000000000000000
(57.280000) can0 008#F37F070000000000
(57.320000) can0 440#480200000000FFFF
(57.360000) can0 580#5AA65596FAFEFFFF
(57.400000) can0 145#010100FF00000000
(57.440000) can0 147#0000000000000000
(57.480000) can0 173#FDFF1F0000000000
(57.520000) can0 44B#400200000000FFFF
(57.560000) can0 009#FCFF0F3330000000
(57.600000) can0 541#FB0A0F0F00000000
(57.640000) can0 147#0000000000000000
(57.680000) can0 008#F37F070000000000
(57.720000) can0 448#4B0200000000FFFF
(57.770000) can0 008#F37F070000000000
(57.810000) can0 145#010100FF00000000
(57.850000) can0 147#0000000000000000
(57.890000) can0 008#F37F070000000000
(57.930000) can0 440#480200000000FFFF
(57.970000) can0 008#F37F070000000000
(58.010000) can0 145#010100FF00000000
(58.050000) can0 448#4B0200000000FFFF
(58.090000) can0 008#F37F070000000000
(58.130000) can0 44B#400200000000FFFF
(58.170000) can0 008#F37F070000000000
(58.210000) can0 145#010100FF00000000
(58.250000) can0 440#480200000000FFFF
(58.290000) can0 008#F37F070000000000
(58.330000) can0 448#4B0200000000FFFF
(58.370000) can0 008#F37F070000000000
(58.420000) can0 145#010100FF00000000
(58.460000) can0 44B#400200000000FFFF
(58.500000) can0 173#FDFF1F0000000000
(58.540000) can0 440#480200000000FFFF
(58.580000) can0 181#F0FCFCCCFAFFFFFF
(58.620000) can0 448#4B0200000000FFFF
(58.660000) can0 147#0000000000000000
(58.700000) can0 008#F37F070000000000
(58.740000) can0 44B#400200000000FFFF
(58.780000) can0 008#F37F070000000000
(58.820000) can0 147#0000000000000000
(58.860000) can0 008#F37F070000000000
(58.900000) can0 448#4B0200000000FFFF
(58.940000) can0 580#5AA65596FAFEFFFF
(58.980000) can0 44B#400200000000FFFF
(59.020000) can0 147#0000000000000000
(59.060000) can0 008#F37F070000000000
(59.100000) can0 440#480200000000FFFF
(59.150000) can0 580#5AA65596FAFEFFFF
(59.190000) can0 448#4B0200000000FFFF
(59.230000) can0 147#0000000000000000
(59.270000) can0 44B#400200000000FFFF
(59.310000) can0 580#5AA65596FAFEFFFF
(59.350000) can0 008#F37F070000000000
(59.390000) can0 440#480200000000FFFF
(59.430000) can0 147#0000000000000000
(59.470000) can0 173#FDFF1F0000000000
(59.510000) can0 44B#400200000000FFFF
(59.550000) can0 580#5AA65596FAFEFFFF
(59.590000) can0 183#0E0A0A0A0A0A00FF
(59.630000) can0 147#0000000000000000
(59.670000) can0 008#F37F070000000000
(59.710000) can0 448#4B0200000000FFFF
(59.750000) can0 580#5AA65596FAFEFFFF
(59.790000) can0 008#F37F070000000000
(59.830000) can0 147#0000000000000000
(59.880000) can0 008#F37F070000000000
(59.920000) can0 440#480200000000FFFF
(59.960000) can0 580#5AA65596FAFEFFFF
(60.000000) can0 008#F37F070000000000
(60.040000) can0 147#0000000000000000
(60.080000) can0 008#F37F070000000000
(60.120000) can0 44B#400200000000FFFF
(60.160000) can0 008#F37F070000000000
(60.200000) can0 145#010100FF00000000
(60.240000) can0 440#480200000000FFFF
(60.280000) can0 008#F37F070000000000
(60.320000) can0 448#4B0200000000FFFF
(60.360000) can0 008#F37F070000000000
(60.400000) can0 145#010100FF00000000
(60.440000) can0 44B#400200000000FFFF
(60.480000) can0 173#FDFF1F0000000000
(60.520000) can0 440#480200000000FFFF
(60.560000) can0 181#F0FCFCCCFAFFFFFF
(60.610000) can0 541#FB0A0F0F00000000
(60.650000) can0 448#4B0200000000FFFF
(60.690000) can0 008#F37F070000000000
(60.730000) can0 44B#400200000000FFFF
(60.770000) can0 008#F37F070000000000
(60.810000) can0 145#010100FF00000000
(60.850000) can0 440#480200000000FFFF
(60.890000) can0 008#F37F070000000000
(60.930000) can0 448#4B0200000000FFFF
(60.970000) can0 008#F37F070000000000
(61.010000) can0 44B#400200000000FFFF
(61.050000) can0 147#0000000000000000
(61.090000) can0 008#F37F070000000000
(61.130000) can0 440#480200000000FFFF
(61.170000) can0 008#F37F070000000000
(61.210000) can0 145#010100FF00000000
(61.250000) can0 147#0000000000000000
(61.290000) can0 44B#400200000000FFFF
(61.340000) can0 580#5AA65596FAFEFFFF
(61.380000) can0 008#F37F070000000000
(61.420000) can0 145#010100FF00000000
(61.460000) can0 173#FDFF1F0000000000
(61.500000) can0 448#4B0200000000FFFF
(61.540000) can0 580#5AA65596FAFEFFFF
(61.580000) can0 44B#400200000000FFFF
(61.620000) can0 147#0000000000000000
(61.660000) can0 008#F37F070000000000
(61.700000) can0 440#480200000000FFFF
(61.740000) can0 580#5AA65596FAFEFFFF
(61.780000) can0 008#F37F070000000000
(61.820000) can0 147#0000000000000000
(61.860000) can0 008#F37F070000000000
(61.900000) can0 580#5AA65596FAFEFFFF
(61.940000) can0 440#480200000000FFFF
(61.980000) can0 008#F37F070000000000
(62.020000) can0 147#0000000000000000
(62.060000) can0 008#F37F070000000000
(62.110000) can0 44B#400200000000FFFF
(62.150000) can0 580#5AA65596FAFEFFFF
(62.190000) can0 008#F37F070000000000
(62.230000) can0 147#0000000000000000
(62.270000) can0 008#F37F070000000000
(62.310000) can0 448#4B0200000000FFFF
(62.350000) can0 580#5AA65596FAFEFFFF
(62.390000) can0 008#F37F070000000000
(62.430000) can0 147#0000000000000000
(62.470000) can0 173#FDFF1F0000000000
(62.510000) can0 440#480200000000FFFF
(62.550000) can0 181#F0FCFCCCFAFFFFFF
(62.590000) can0 009#FCFF0F3330000000
(62.630000) can0 147#0000000000000000
(62.670000) can0 008#F37F070000000000
(62.710000) can0 44B#400200000000FFFF
(62.750000) can0 008#F37F070000000000
(62.790000) can0 145#010100FF00000000
(62.840000) can0 147#0000000000000000
(62.880000) can0 008#F37F070000000000
(62.920000) can0 448#4B0200000000FFFF
(62.960000) can0 008#F37F070000000000
(63.000000) can0 145#010100FF00000000
(63.040000) can0 147#0000000000000000
(63.080000) can0 008#F37F070000000000
(63.120000) can0 440#480200000000FFFF
