(216.290000) can0 504#0000000000000000
(216.340000) can0 173#0D0C040000000000
(216.470000) can0 171#0200000000000000
(216.480000) can0 501#00FF00FF00000300
(216.490000) can0 504#0000000000000000
(216.540000) can0 173#0D0C040000000000
(216.640000) can0 570#FFFFFFFFFFFFFFFF
(216.670000) can0 171#0200000000000000
(216.680000) can0 501#00FF00FF00000300
(216.690000) can0 504#0000000000000000
(216.740000) can0 173#0D0C040000000000
(216.870000) can0 171#0200000000000000
(216.880000) can0 501#00FF00FF00000300
(216.890000) can0 504#0000000000000000
(216.930000) can0 440#4004000000000000
(216.970000) can0 173#0D0C040000000000
(217.070000) can0 171#0200000000000000
(217.080000) can0 501#00FF00FF00000300
(217.090000) can0 504#0000000000000000
(217.140000) can0 173#0D0C040000000000
(217.270000) can0 171#0200000000000000
(217.280000) can0 501#00FF00FF00000300
(217.290000) can0 504#0000000000000000
(217.340000) can0 173#0D0C040000000000
(217.470000) can0 171#0200000000000000
(217.480000) can0 501#00FF00FF00000300
(217.490000) can0 504#0000000000000000
(217.540000) can0 173#0D0C040000000000
(217.590000) can0 100#FF0000FF00000000
(217.640000) can0 570#FFFFFFFFFFFFFFFF
(217.670000) can0 171#0200000000000000
(217.690000) can0 501#00FF00FF00000300
(217.730000) can0 504#0000000000000000
(217.770000) can0 173#0D0C040000000000
(217.870000) can0 171#0200000000000000
(217.880000) can0 501#00FF00FF00000300
(217.900000) can0 504#0000000000000000
(217.940000) can0 440#4004000000000000
(217.980000) can0 173#0D0C040000000000
(218.070000) can0 171#0200000000000000
(218.080000) can0 501#00FF00FF00000300
(218.110000) can0 504#0000000000000000
(218.150000) can0 173#0D0C040000000000
(218.270000) can0 171#0200000000000000
(218.280000) can0 501#00FF00FF00000300
(218.290000) can0 504#0000000000000000
(218.340000) can0 173#0D0C040000000000
(218.470000) can0 171#0200000000000000
(218.480000) can0 501#00FF00FF00000300
(218.490000) can0 504#0000000000000000
(218.540000) can0 173#0D0C040000000000
(218.630000) can0 570#FFFFFFFFFFFFFFFF
(218.660000) can0 171#0200000000000000
(218.680000) can0 501#00FF00FF00000300
(218.690000) can0 504#0000000000000000
(218.740000) can0 173#0D0C040000000000
(218.870000) can0 171#0200000000000000
(218.880000) can0 501#00FF00FF00000300
(218.890000) can0 504#0000000000000000
(218.930000) can0 440#4004000000000000
(218.970000) can0 173#0D0C040000000000
(219.070000) can0 171#0200000000000000
(219.080000) can0 501#00FF00FF00000300
(219.090000) can0 504#0000000000000000
(219.140000) can0 173#0D0C040000000000
(219.270000) can0 171#0200000000000000
(219.270000) can0 501#00FF00FF00000300
(219.290000) can0 504#0000000000000000
(219.340000) can0 173#0D0C040000000000
(219.470000) can0 171#0200000000000000
(219.480000) can0 501#00FF00FF00000300
(219.490000) can0 504#0000000000000000
(219.540000) can0 173#0D0C040000000000
(219.590000) can0 100#FF0000FF00000000
(219.640000) can0 570#FFFFFFFFFFFFFFFF
(219.670000) can0 171#0200000000000000
(219.690000) can0 501#00FF00FF00000300
(219.730000) can0 504#0000000000000000
(219.770000) can0 173#0D0C040000000000
(219.870000) can0 171#0200000000000000
(219.880000) can0 501#00FF00FF00000300
(219.900000) can0 504#0000000000000000
(219.940000) can0 440#4004000000000000
(219.980000) can0 173#0D0C040000000000
(220.070000) can0 171#0200000000000000
(220.080000) can0 501#00FF00FF00000300
(220.110000) can0 504#0000000000000000
(220.150000) can0 173#0D0C040000000000
(220.270000) can0 171#0200000000000000
(220.280000) can0 501#00FF00FF00000300
(220.280000) can0 504#0000000000000000
(220.340000) can0 173#0D0C040000000000
(220.360000) can0 00F#FFFFFFFFFFFF0000
(220.410000) can0 00F#FF09FFFFFFFF0000
(220.450000) can0 00F#FF09FFFFFFFF0000
(220.490000) can0 171#0200000000000000
(220.530000) can0 504#0000000000000000
(220.570000) can0 173#0D0C040000000000
(220.610000) can0 00F#FFFFFFFFFFFF0000
(220.660000) can0 570#FFFFFFFFFFFFFFFF
(220.700000) can0 00F#FF08FFFFFFFF0000
(220.740000) can0 504#0000000000000000
(220.780000) can0 173#0D0C040000000000
(220.820000) can0 00F#FFFFFFFFFFFF0000
(220.860000) can0 00F#FF07FFFFFFFF0000
(220.910000) can0 171#0200000000000000
(220.950000) can0 00F#FF07FFFFFFFF0000
(220.990000) can0 173#0D0C040000000000
(221.030000) can0 00F#FF09FFFFFFFF0000
(221.070000) can0 171#0200000000000000
(221.110000) can0 501#00FF00FF00000300
(221.160000) can0 00F#FFFFFFFFFFFF0000
(221.200000) can0 00F#FF06FFFFFFFF0000
(221.240000) can0 00F#FF06FFFFFFFF0000
(221.280000) can0 171#0200000000000000
(221.320000) can0 501#00FF00FF00000300
(221.360000) can0 504#0000000000000000
(221.410000) can0 00F#FFFFFFFFFFFF0000
(221.450000) can0 00F#FF05FFFFFFFF0000
(221.490000) can0 00F#FF05FFFFFFFF0000
(221.530000) can0 504#0000000000000000
(221.570000) can0 173#0D0C040000000000
(221.610000) can0 100#FF0000FF00000000
(221.660000) can0 570#FFFFFFFFFFFFFFFF
(221.700000) can0 171#0200000000000000
(221.740000) can0 00F#FFFFFFFFFFFF0000
(221.780000) can0 173#0D0C040000000000
(221.820000) can0 00F#FF04FFFFFFFF0000
(221.860000) can0 00F#FF04FFFFFFFF0000
(221.900000) can0 171#0200000000000000
(221.950000) can0 504#0000000000000000
(221.990000) can0 173#0D0C040000000000
(222.030000) can0 00F#FFFFFFFFFFFF0000
(222.070000) can0 00F#FF03FFFFFFFF0000
(222.110000) can0 00F#FF03FFFFFFFF0000
(222.150000) can0 00F#FF03FFFFFFFF0000
(222.200000) can0 173#0D0C040000000000
(222.240000) can0 504#0000000000000000
(222.280000) can0 171#0200000000000000
(222.320000) can0 504#0000000000000000
(222.360000) can0 173#0D0C040000000000
(222.400000) can0 00F#FFFFFFFFFFFF0000
(222.450000) can0 00F#FF02FFFFFFFF0000
(222.490000) can0 00F#FF02FFFFFFFF0000
(222.530000) can0 504#0000000000000000
(222.570000) can0 173#0D0C040000000000
(222.610000) can0 501#00FF00FF00000300
(222.650000) can0 570#FFFFFFFFFFFFFFFF
(222.690000) can0 171#0200000000000000
(222.740000) can0 504#0000000000000000
(222.780000) can0 173#0D0C040000000000
(222.820000) can0 00F#FF01FFFFFFFF0000
(222.860000) can0 00F#FF01FFFFFFFF0000
(222.900000) can0 00F#FF01FFFFFFFF0000
(222.940000) can0 504#0000000000000000
(222.990000) can0 173#0D0C040000000000
(223.030000) can0 501#00FF00FF00000300
(223.070000) can0 171#0200000000000000
(223.110000) can0 501#00FF00FF00000300
(223.150000) can0 173#0D0C040000000000
(223.190000) can0 504#0000000000000000
(223.250000) can0 00F#FFFFFFFFFFFF0000
(223.280000) can0 171#0200000000000000
(223.320000) can0 00F#FF00FFFFFFFF0000
(223.360000) can0 00F#FF00FFFFFFFF0000
(223.400000) can0 00F#FF00FFFFFFFF0000
(223.440000) can0 501#00FF00FF00000300
(223.480000) can0 171#0200000000000000
(223.530000) can0 504#0000000000000000
(223.570000) can0 173#0D0C040000000000
(223.610000) can0 100#FF0000FF00000000
(223.650000) can0 570#FFFFFFFFFFFFFFFF
(223.690000) can0 171#0200000000000000
(223.730000) can0 504#0000000000000000
(223.780000) can0 173#0D0C040000000000
(223.820000) can0 501#00FF00FF00000300
(223.860000) can0 171#0200000000000000
(223.900000) can0 501#00FF00FF00000300
(223.940000) can0 440#4004000000000000
(223.980000) can0 173#0D0C040000000000
(224.020000) can0 504#0000000000000000
(224.070000) can0 171#0200000000000000
(224.110000) can0 501#00FF00FF00000300
(224.150000) can0 173#0D0C040000000000
(224.190000) can0 504#0000000000000000
(224.270000) can0 171#0200000000000000
(224.270000) can0 501#00FF00FF00000300
(224.320000) can0 504#0000000000000000
(224.360000) can0 173#0D0C040000000000
(224.460000) can0 171#0200000000000000
(224.480000) can0 501#00FF00FF00000300
(224.480000) can0 504#0000000000000000
(224.540000) can0 173#0D0C040000000000
(224.620000) can0 00F#FFFFFFFFFFFF0000
(224.630000) can0 570#FFFFFFFFFFFFFFFF
(224.660000) can0 00F#FF01FFFFFFFF0000
(224.690000) can0 171#0200000000000000
(224.730000) can0 00F#FF01FFFFFFFF0000
(224.770000) can0 00F#FF01FFFFFFFF0000
(224.820000) can0 173#0D0C040000000000
(224.860000) can0 501#00FF00FF00000300
(224.900000) can0 171#0200000000000000
(224.940000) can0 504#0000000000000000
(224.980000) can0 00F#FF02FFFFFFFF0000
(225.020000) can0 00F#FF02FFFFFFFF0000
(225.070000) can0 00F#FF02FFFFFFFF0000
(225.110000) can0 171#0200000000000000
(225.150000) can0 504#0000000000000000
(225.190000) can0 173#0D0C040000000000
(225.230000) can0 501#00FF00FF00000300
(225.270000) can0 171#0200000000000000
(225.320000) can0 501#00FF00FF00000300
(225.360000) can0 00F#FFFFFFFFFFFF0000
(225.400000) can0 00F#FF03FFFFFFFF0000
(225.440000) can0 00F#FF03FFFFFFFF0000
(225.480000) can0 00F#FF03FFFFFFFF0000
(225.520000) can0 501#00FF00FF00000300
(225.570000) can0 00F#FFFFFFFFFFFF0000
(225.610000) can0 00F#FF04FFFFFFFF0000
(225.650000) can0 00F#FF04FFFFFFFF0000
(225.690000) can0 570#FFFFFFFFFFFFFFFF
(225.730000) can0 504#0000000000000000
(225.770000) can0 173#0D0C040000000000
(225.810000) can0 00F#FFFFFFFFFFFF0000
(225.860000) can0 00F#FF05FFFFFFFF0000
(225.900000) can0 00F#FF05FFFFFFFF0000
(225.940000) can0 504#0000000000000000
(225.980000) can0 173#0D0C040000000000
(226.020000) can0 504#0000000000000000
(226.060000) can0 00F#FFFFFFFFFFFF0000
(226.110000) can0 171#0200000000000000
(226.150000) can0 00F#FF06FFFFFFFF0000
(226.190000) can0 173#0D0C040000000000
(226.230000) can0 00F#FFFFFFFFFFFF0000
(226.270000) can0 00F#FF07FFFFFFFF0000
(226.310000) can0 171#0200000000000000
(226.360000) can0 00F#FF07FFFFFFFF0000
(226.400000) can0 173#0D0C040000000000
(226.440000) can0 00F#FFFFFFFFFFFF0000
(226.480000) can0 00F#FF08FFFFFFFF0000
(226.520000) can0 501#00FF00FF00000300
(226.560000) can0 00F#FF08FFFFFFFF0000
(226.610000) can0 173#0D0C040000000000
(226.650000) can0 570#FFFFFFFFFFFFFFFF
(226.690000) can0 00F#FFFFFFFFFFFF0000
(226.730000) can0 504#0000000000000000
(226.770000) can0 00F#FF09FFFFFFFF0000
(226.810000) can0 00F#FF09FFFFFFFF0000
(226.850000) can0 00F#FF06FFFFFFFF0000
(226.900000) can0 171#0200000000000000
(226.940000) can0 504#0000000000000000
(226.980000) can0 00F#FF0AFFFFFFFF0000
(227.020000) can0 00F#FF0AFFFFFFFF0000
(227.060000) can0 00F#FF0AFFFFFFFF0000
(227.100000) can0 171#0200000000000000
(227.150000) can0 504#0000000000000000
(227.190000) can0 00F#FF0BFFFFFFFF0000
(227.230000) can0 00F#FF0BFFFFFFFF0000
(227.270000) can0 00F#FF0BFFFFFFFF0000
(227.310000) can0 171#0200000000000000
(227.350000) can0 00F#FFFFFFFFFFFF0000
(227.400000) can0 00F#FF0CFFFFFFFF0000
(227.440000) can0 00F#FF0CFFFFFFFF0000
(227.480000) can0 00F#FF0CFFFFFFFF0000
(227.520000) can0 501#00FF00FF00000300
(227.560000) can0 504#0000000000000000
(227.600000) can0 173#0D0C040000000000
(227.650000) can0 00F#FF0DFFFFFFFF0000
(227.690000) can0 570#FFFFFFFFFFFFFFFF
(227.730000) can0 504#0000000000000000
(227.770000) can0 173#0D0C040000000000
(227.810000) can0 00F#FFFFFFFFFFFF0000
(227.850000) can0 00F#FF0EFFFFFFFF0000
(227.900000) can0 00F#FF0EFFFFFFFF0000
(227.940000) can0 00F#FF0EFFFFFFFF0000
(227.980000) can0 173#0D0C040000000000
(228.020000) can0 00F#FFFFFFFFFFFF0000
(228.060000) can0 00F#FF0FFFFFFFFF0000
(228.100000) can0 00F#FF0FFFFFFFFF0000
(228.140000) can0 00F#FF0FFFFFFFFF0000
(228.190000) can0 173#0D0C040000000000
(228.230000) can0 501#00FF00FF00000300
(228.270000) can0 00F#FFFFFFFFFFFF0000
(228.310000) can0 501#00FF00FF00000300
(228.350000) can0 00F#FF10FFFFFFFF0000
(228.390000) can0 00F#FF10FFFFFFFF0000
(228.440000) can0 171#0200000000000000
(228.480000) can0 00F#FFFFFFFFFFFF0000
(228.520000) can0 00F#FF11FFFFFFFF0000
(228.560000) can0 00F#FF11FFFFFFFF0000
(228.600000) can0 00F#FF11FFFFFFFF0000
(228.640000) can0 570#FFFFFFFFFFFFFFFF
(228.680000) can0 171#0200000000000000
(228.730000) can0 504#0000000000000000
(228.770000) can0 173#0D0C040000000000
(228.810000) can0 171#0200000000000000
(228.870000) can0 171#0200000000000000
(228.890000) can0 501#00FF00FF00000300
(228.930000) can0 440#4004000000000000
(228.980000) can0 173#0D0C040000000000
(229.020000) can0 504#0000000000000000
(229.060000) can0 171#0200000000000000
(229.100000) can0 501#00FF00FF00000300
(229.140000) can0 00F#FFFFFFFFFFFF0000
(229.180000) can0 173#0D0C040000000000
(229.230000) can0 00F#FF12FFFFFFFF0000
(229.270000) can0 00F#FF12FFFFFFFF0000
(229.310000) can0 171#0200000000000000
(229.350000) can0 504#0000000000000000
(229.390000) can0 173#0D0C040000000000
(229.430000) can0 00F#FFFFFFFFFFFF0000
(229.480000) can0 00F#FF13FFFFFFFF0000
(229.520000) can0 501#00FF00FF00000300
(229.560000) can0 00F#FF13FFFFFFFF0000
(229.600000) can0 173#0D0C040000000000
(229.640000) can0 100#FF0000FF00000000
(229.680000) can0 570#FFFFFFFFFFFFFFFF
(229.730000) can0 504#0000000000000000
(229.770000) can0 173#0D0C040000000000
(229.810000) can0 00F#FFFFFFFFFFFF0000
(229.850000) can0 00F#FF14FFFFFFFF0000
(229.890000) can0 171#0200000000000000
(229.930000) can0 504#0000000000000000
(229.980000) can0 440#4004000000000000
(230.020000) can0 173#0D0C040000000000
(230.060000) can0 504#0000000000000000
(230.100000) can0 171#0200000000000000
(230.140000) can0 504#0000000000000000
(230.180000) can0 173#0D0C040000000000
(230.220000) can0 501#00FF00FF00000300
(230.270000) can0 171#0200000000000000
(230.310000) can0 501#00FF00FF00000300
(230.350000) can0 173#0D0C040000000000
(230.390000) can0 504#0000000000000000
(230.460000) can0 171#0200000000000000
(230.470000) can0 501#00FF00FF00000300
(230.520000) can0 504#0000000000000000
(230.560000) can0 173#0D0C040000000000
(230.630000) can0 570#FFFFFFFFFFFFFFFF
(230.660000) can0 171#0200000000000000
(230.680000) can0 501#00FF00FF00000300
(230.720000) can0 504#0000000000000000
(230.770000) can0 00F#FF13FFFFFFFF0000
(230.810000) can0 00F#FF13FFFFFFFF0000
(230.850000) can0 00F#FF13FFFFFFFF0000
(230.890000) can0 171#0200000000000000
(230.930000) can0 00F#FFFFFFFFFFFF0000
(230.970000) can0 00F#FF12FFFFFFFF0000
(231.010000) can0 00F#FF12FFFFFFFF0000
(231.060000) can0 00F#FF12FFFFFFFF0000
(231.100000) can0 171#0200000000000000
(231.140000) can0 00F#FFFFFFFFFFFF0000
(231.180000) can0 173#0D0C040000000000
(231.220000) can0 00F#FF11FFFFFFFF0000
(231.260000) can0 00F#FF11FFFFFFFF0000
(231.310000) can0 171#0200000000000000
(231.350000) can0 00F#FFFFFFFFFFFF0000
(231.390000) can0 00F#FF10FFFFFFFF0000
(231.430000) can0 00F#FF10FFFFFFFF0000
(231.470000) can0 171#0200000000000000
(231.510000) can0 501#00FF00FF00000300
(231.560000) can0 00F#FFFFFFFFFFFF0000
(231.600000) can0 00F#FF0FFFFFFFFF0000
(231.640000) can0 00F#FF0FFFFFFFFF0000
(231.680000) can0 570#FFFFFFFFFFFFFFFF
(231.720000) can0 501#00FF00FF00000300
(231.760000) can0 00F#FF0EFFFFFFFF0000
(231.800000) can0 00F#FF0EFFFFFFFF0000
(231.850000) can0 00F#FF0EFFFFFFFF0000
(231.890000) can0 171#0200000000000000
(231.930000) can0 504#0000000000000000
(231.970000) can0 00F#FFFFFFFFFFFF0000
(232.010000) can0 00F#FF0DFFFFFFFF0000
(232.050000) can0 00F#FF0DFFFFFFFF0000
(232.100000) can0 00F#FF0DFFFFFFFF0000
(232.140000) can0 504#0000000000000000
(232.180000) can0 173#0D0C040000000000
(232.220000) can0 00F#FFFFFFFFFFFF0000
(232.260000) can0 00F#FFFFFFFFFFFF0000
(232.300000) can0 171#0200000000000000
(232.350000) can0 00F#FF0CFFFFFFFF0000
(232.390000) can0 173#0D0C040000000000
(232.430000) can0 00F#FFFFFFFFFFFF0000
(232.470000) can0 00F#FF0BFFFFFFFF0000
(232.510000) can0 00F#FF0BFFFFFFFF0000
(232.550000) can0 00F#FF0BFFFFFFFF0000
(232.600000) can0 173#0D0C040000000000
(232.640000) can0 570#FFFFFFFFFFFFFFFF
(232.680000) can0 171#0200000000000000
(232.720000) can0 501#00FF00FF00000300
(232.760000) can0 00F#FF0AFFFFFFFF0000
(232.800000) can0 00F#FF0AFFFFFFFF0000
(232.850000) can0 00F#FF0AFFFFFFFF0000
(232.890000) can0 171#0200000000000000
(232.930000) can0 504#0000000000000000
(232.970000) can0 440#4004000000000000
(233.010000) can0 173#0D0C040000000000
(233.050000) can0 00F#FF0CFFFFFFFF0000
(233.100000) can0 171#0200000000000000
(233.140000) can0 504#0000000000000000
(233.180000) can0 173#0D0C040000000000
(233.220000) can0 501#00FF00FF00000300
(233.260000) can0 171#0200000000000000
(233.300000) can0 501#00FF00FF00000300
(233.340000) can0 173#0D0C040000000000
(233.380000) can0 504#0000000000000000
(233.460000) can0 171#0200000000000000
(233.470000) can0 501#00FF00FF00000300
(233.510000) can0 504#0000000000000000
(233.550000) can0 173#0D0C040000000000
(233.590000) can0 100#FF0000FF00000000
(233.630000) can0 570#FFFFFFFFFFFFFFFF
(233.680000) can0 171#0200000000000000
(233.720000) can0 504#0000000000000000
(233.760000) can0 173#0D0C040000000000
(233.800000) can0 501#00FF00FF00000300
(233.860000) can0 171#0200000000000000
(233.880000) can0 501#00FF00FF00000300
(233.930000) can0 440#4004000000000000
(233.970000) can0 173#0D0C040000000000
(234.010000) can0 504#0000000000000000
(234.060000) can0 171#0200000000000000
(234.090000) can0 501#00FF00FF00000300
(234.130000) can0 173#0D0C040000000000
(234.180000) can0 504#0000000000000000
(234.260000) can0 171#0200000000000000
(234.270000) can0 501#00FF00FF00000300
(234.300000) can0 504#0000000000000000
(234.340000) can0 173#0D0C040000000000
(234.460000) can0 171#0200000000000000
(234.470000) can0 501#00FF00FF00000300
(234.480000) can0 504#0000000000000000
(234.530000) can0 173#0D0C040000000000
(234.630000) can0 570#FFFFFFFFFFFFFFFF
(234.660000) can0 171#0200000000000000
(234.670000) can0 501#00FF00FF00000300
(234.690000) can0 504#0000000000000000
(234.730000) can0 173#0D0C040000000000
(234.860000) can0 171#0200000000000000
(234.870000) can0 501#00FF00FF00000300
(234.880000) can0 504#0000000000000000
(234.920000) can0 440#4004000000000000
(234.960000) can0 173#0D0C040000000000
(235.060000) can0 171#0200000000000000
(235.070000) can0 501#00FF00FF00000300
(235.090000) can0 504#0000000000000000
(235.130000) can0 173#0D0C040000000000
(235.260000) can0 171#0200000000000000
(235.270000) can0 501#00FF00FF00000300
(235.280000) can0 504#0000000000000000
(235.330000) can0 173#0D0C040000000000
(235.460000) can0 171#0200000000000000
(235.470000) can0 501#00FF00FF00000300
(235.480000) can0 504#0000000000000000
(235.530000) can0 173#0D0C040000000000
(235.580000) can0 100#FF0000FF00000000
(235.630000) can0 570#FFFFFFFFFFFFFFFF
(235.660000) can0 171#0200000000000000
(235.690000) can0 501#00FF00FF00000300
(235.730000) can0 504#0000000000000000
(235.770000) can0 173#0D0C040000000000
(235.860000) can0 171#0200000000000000
(235.870000) can0 501#00FF00FF00000300
(235.890000) can0 504#0000000000000000
(235.940000) can0 440#4004000000000000
(235.980000) can0 173#0D0C040000000000
(236.060000) can0 171#0200000000000000
(236.070000) can0 501#00FF00FF00000300
(236.100000) can0 504#0000000000000000
(236.140000) can0 173#0D0C040000000000
(236.260000) can0 171#0200000000000000
(236.270000) can0 501#00FF00FF00000300
(236.280000) can0 504#0000000000000000
(236.330000) can0 173#0D0C040000000000
(236.460000) can0 171#0200000000000000
(236.470000) can0 501#00FF00FF00000300
(236.480000) can0 504#0000000000000000
(236.530000) can0 173#0D0C040000000000
