(268.450000) can0 171#0200000000000000
(268.470000) can0 501#00FF00FF00000300
(268.480000) can0 504#0000000000000000
(268.520000) can0 173#0D0C040000000000
(268.630000) can0 570#FFFFFFFFFFFFFFFF
(268.660000) can0 171#0200000000000000
(268.670000) can0 501#00FF00FF00000300
(268.690000) can0 504#0000000000000000
(268.730000) can0 173#0D0C040000000000
(268.860000) can0 171#0200000000000000
(268.870000) can0 501#00FF00FF00000300
(268.880000) can0 504#0000000000000000
(268.910000) can0 440#4004000000000000
(268.950000) can0 173#0D0C040000000000
(269.060000) can0 171#0200000000000000
(269.070000) can0 501#00FF00FF00000300
(269.080000) can0 504#0000000000000000
(269.130000) can0 173#0D0C040000000000
(269.260000) can0 171#0200000000000000
(269.270000) can0 501#00FF00FF00000300
(269.280000) can0 504#0000000000000000
(269.330000) can0 173#0D0C040000000000
(269.460000) can0 171#0200000000000000
(269.470000) can0 501#00FF00FF00000300
(269.480000) can0 504#0000000000000000
(269.530000) can0 173#0D0C040000000000
(269.580000) can0 100#FF0000FF00000000
(269.630000) can0 570#FFFFFFFFFFFFFFFF
(269.660000) can0 171#0200000000000000
(269.680000) can0 501#00FF00FF00000300
(269.720000) can0 504#0000000000000000
(269.760000) can0 173#0D0C040000000000
(269.860000) can0 171#0200000000000000
(269.870000) can0 501#00FF00FF00000300
(269.890000) can0 504#0000000000000000
(269.930000) can0 440#4004000000000000
(269.970000) can0 173#0D0C040000000000
(270.060000) can0 171#0200000000000000
(270.070000) can0 501#00FF00FF00000300
(270.100000) can0 504#0000000000000000
(270.140000) can0 173#0D0C040000000000
(270.260000) can0 171#0200000000000000
(270.270000) can0 501#00FF00FF00000300
(270.270000) can0 504#0000000000000000
(270.330000) can0 173#0D0C040000000000
(270.460000) can0 171#0200000000000000
(270.470000) can0 501#00FF00FF00000300
(270.480000) can0 504#0000000000000000
(270.520000) can0 173#0D0C040000000000
(270.630000) can0 570#FFFFFFFFFFFFFFFF
(270.660000) can0 171#0200000000000000
(270.670000) can0 501#00FF00FF00000300
(270.680000) can0 504#0000000000000000
(270.730000) can0 173#0D0C040000000000
(270.860000) can0 171#0200000000000000
(270.870000) can0 501#00FF00FF00000300
(270.880000) can0 504#0000000000000000
(270.910000) can0 00F#FFFFFFFFFFFF0000
(270.950000) can0 00F#FFFFFF09FFFF0000
(271.000000) can0 00F#FFFFFF09FFFF0000
(271.040000) can0 00F#FFFFFF09FFFF0000
(271.080000) can0 171#0200000000000000
(271.120000) can0 00F#FFFFFFFFFFFF0000
(271.160000) can0 00F#FFFFFF08FFFF0000
(271.200000) can0 00F#FFFFFF08FFFF0000
(271.250000) can0 00F#FFFFFF08FFFF0000
(271.290000) can0 171#0200000000000000
(271.330000) can0 504#0000000000000000
(271.370000) can0 173#0D0C040000000000
(271.410000) can0 440#4004000000000000
(271.450000) can0 171#0200000000000000
(271.500000) can0 501#00FF00FF00000300
(271.540000) can0 173#0D0C040000000000
(271.580000) can0 100#FF0000FF00000000
(271.620000) can0 504#0000000000000000
(271.660000) can0 570#FFFFFFFFFFFFFFFF
(271.700000) can0 501#00FF00FF00000300
(271.750000) can0 504#0000000000000000
(271.790000) can0 173#0D0C040000000000
(271.830000) can0 171#0200000000000000
(271.870000) can0 171#0200000000000000
(271.910000) can0 504#0000000000000000
(271.950000) can0 00F#FFFFFF07FFFF0000
(272.000000) can0 00F#FFFFFF07FFFF0000
(272.040000) can0 00F#FFFFFF07FFFF0000
(272.080000) can0 171#0200000000000000
(272.120000) can0 504#0000000000000000
(272.160000) can0 173#0D0C040000000000
(272.200000) can0 501#00FF00FF00000300
(272.260000) can0 171#0200000000000000
(272.290000) can0 501#00FF00FF00000300
(272.330000) can0 173#0D0C040000000000
(272.370000) can0 504#0000000000000000
(272.450000) can0 171#0200000000000000
(272.460000) can0 501#00FF00FF00000300
(272.490000) can0 504#0000000000000000
(272.540000) can0 173#0D0C040000000000
(272.630000) can0 570#FFFFFFFFFFFFFFFF
(272.660000) can0 171#0200000000000000
(272.670000) can0 501#00FF00FF00000300
(272.700000) can0 504#0000000000000000
(272.740000) can0 00F#FFFFFFFFFFFF0000
(272.790000) can0 00F#FFFFFF06FFFF0000
(272.830000) can0 00F#FFFFFF06FFFF0000
(272.870000) can0 00F#FFFFFF06FFFF0000
(272.910000) can0 501#00FF00FF00000300
(272.950000) can0 440#4004000000000000
(272.990000) can0 173#0D0C040000000000
(273.040000) can0 173#0D0C040000000000
(273.080000) can0 00F#FFFFFFFFFFFF0000
(273.120000) can0 504#0000000000000000
(273.160000) can0 00F#FFFFFF05FFFF0000
(273.200000) can0 00F#FFFFFF05FFFF0000
(273.240000) can0 171#0200000000000000
(273.290000) can0 171#0200000000000000
(273.330000) can0 504#0000000000000000
(273.370000) can0 173#0D0C040000000000
(273.410000) can0 00F#FFFFFFFFFFFF0000
(273.450000) can0 00F#FFFFFF04FFFF0000
(273.490000) can0 00F#FFFFFF04FFFF0000
(273.530000) can0 00F#FFFFFF04FFFF0000
(273.580000) can0 173#0D0C040000000000
(273.620000) can0 100#FF0000FF00000000
(273.660000) can0 570#FFFFFFFFFFFFFFFF
(273.700000) can0 171#0200000000000000
(273.740000) can0 504#0000000000000000
(273.780000) can0 00F#FFFFFFFFFFFF0000
(273.830000) can0 00F#FFFFFF03FFFF0000
(273.870000) can0 00F#FFFFFF03FFFF0000
(273.910000) can0 501#00FF00FF00000300
(273.950000) can0 440#4004000000000000
(273.990000) can0 173#0D0C040000000000
(274.030000) can0 501#00FF00FF00000300
(274.080000) can0 171#0200000000000000
(274.120000) can0 504#0000000000000000
(274.160000) can0 173#0D0C040000000000
(274.200000) can0 501#00FF00FF00000300
(274.250000) can0 171#0200000000000000
(274.280000) can0 501#00FF00FF00000300
(274.330000) can0 504#0000000000000000
(274.370000) can0 173#0D0C040000000000
(274.410000) can0 00F#FFFFFFFFFFFF0000
(274.450000) can0 00F#FFFFFF02FFFF0000
(274.490000) can0 171#0200000000000000
(274.530000) can0 00F#FFFFFF02FFFF0000
(274.570000) can0 173#0D0C040000000000
(274.620000) can0 501#00FF00FF00000300
(274.660000) can0 570#FFFFFFFFFFFFFFFF
(274.700000) can0 501#00FF00FF00000300
(274.740000) can0 504#0000000000000000
(274.780000) can0 173#0D0C040000000000
(274.820000) can0 171#0200000000000000
(274.870000) can0 171#0200000000000000
(274.910000) can0 501#00FF00FF00000300
(274.950000) can0 440#4004000000000000
(274.990000) can0 173#0D0C040000000000
(275.030000) can0 504#0000000000000000
(275.070000) can0 171#0200000000000000
(275.120000) can0 504#0000000000000000
(275.160000) can0 173#0D0C040000000000
(275.200000) can0 501#00FF00FF00000300
(275.240000) can0 00F#FFFFFFFFFFFF0000
(275.280000) can0 00F#FFFFFF01FFFF0000
(275.320000) can0 00F#FFFFFF01FFFF0000
(275.360000) can0 00F#FFFFFF01FFFF0000
(275.410000) can0 173#0D0C040000000000
(275.450000) can0 171#0200000000000000
(275.490000) can0 171#0200000000000000
(275.530000) can0 504#0000000000000000
(275.570000) can0 173#0D0C040000000000
(275.610000) can0 100#FF0000FF00000000
(275.660000) can0 570#FFFFFFFFFFFFFFFF
(275.700000) can0 171#0200000000000000
(275.740000) can0 00F#FFFFFFFFFFFF0000
(275.780000) can0 00F#FFFFFF00FFFF0000
(275.820000) can0 00F#FFFFFF00FFFF0000
(275.860000) can0 171#0200000000000000
(275.910000) can0 501#00FF00FF00000300
(275.950000) can0 440#4004000000000000
(275.990000) can0 173#0D0C040000000000
(276.030000) can0 501#00FF00FF00000300
(276.070000) can0 171#0200000000000000
(276.110000) can0 504#0000000000000000
(276.160000) can0 173#0D0C040000000000
(276.200000) can0 501#00FF00FF00000300
(276.250000) can0 171#0200000000000000
(276.280000) can0 501#00FF00FF00000300
(276.320000) can0 504#0000000000000000
(276.360000) can0 173#0D0C040000000000
(276.450000) can0 171#0200000000000000
(276.470000) can0 501#00FF00FF00000300
(276.490000) can0 504#0000000000000000
(276.530000) can0 173#0D0C040000000000
(276.620000) can0 570#FFFFFFFFFFFFFFFF
(276.650000) can0 171#0200000000000000
(276.670000) can0 501#00FF00FF00000300
(276.700000) can0 504#0000000000000000
(276.740000) can0 173#0D0C040000000000
(276.840000) can0 00F#FFFFFFFFFFFF0000
(276.860000) can0 171#0200000000000000
(276.870000) can0 501#00FF00FF00000300
(276.900000) can0 00F#FFFFFF01FFFF0000
(276.950000) can0 00F#FFFFFF01FFFF0000
(276.990000) can0 00F#FFFFFF01FFFF0000
(277.030000) can0 504#0000000000000000
(277.070000) can0 171#0200000000000000
(277.110000) can0 504#0000000000000000
(277.150000) can0 173#0D0C040000000000
(277.200000) can0 00F#FFFFFFFFFFFF0000
(277.240000) can0 00F#FFFFFF02FFFF0000
(277.280000) can0 00F#FFFFFF02FFFF0000
(277.320000) can0 504#0000000000000000
(277.360000) can0 173#0D0C040000000000
(277.400000) can0 501#00FF00FF00000300
(277.450000) can0 171#0200000000000000
(277.490000) can0 501#00FF00FF00000300
(277.530000) can0 00F#FFFFFFFFFFFF0000
(277.570000) can0 00F#FFFFFF03FFFF0000
(277.610000) can0 00F#FFFFFF03FFFF0000
(277.650000) can0 00F#FFFFFF03FFFF0000
(277.690000) can0 570#FFFFFFFFFFFFFFFF
(277.740000) can0 504#0000000000000000
(277.780000) can0 173#0D0C040000000000
(277.820000) can0 00F#FFFFFFFFFFFF0000
(277.860000) can0 00F#FFFFFF04FFFF0000
(277.900000) can0 00F#FFFFFF04FFFF0000
(277.940000) can0 504#0000000000000000
(277.990000) can0 173#0D0C040000000000
(278.030000) can0 504#0000000000000000
(278.070000) can0 171#0200000000000000
(278.110000) can0 504#0000000000000000
(278.150000) can0 00F#FFFFFF05FFFF0000
(278.190000) can0 00F#FFFFFF05FFFF0000
(278.230000) can0 00F#FFFFFF05FFFF0000
(278.280000) can0 171#0200000000000000
(278.320000) can0 504#0000000000000000
(278.360000) can0 173#0D0C040000000000
(278.400000) can0 501#00FF00FF00000300
(278.450000) can0 171#0200000000000000
(278.480000) can0 501#00FF00FF00000300
(278.530000) can0 173#0D0C040000000000
(278.570000) can0 504#0000000000000000
(278.620000) can0 570#FFFFFFFFFFFFFFFF
(278.650000) can0 171#0200000000000000
(278.690000) can0 501#00FF00FF00000300
(278.730000) can0 173#0D0C040000000000
(278.780000) can0 00F#FFFFFFFFFFFF0000
(278.820000) can0 00F#FFFFFF06FFFF0000
(278.860000) can0 00F#FFFFFF06FFFF0000
(278.900000) can0 00F#FFFFFF06FFFF0000
(278.940000) can0 504#0000000000000000
(278.980000) can0 173#0D0C040000000000
(279.020000) can0 504#0000000000000000
(279.070000) can0 171#0200000000000000
(279.110000) can0 504#0000000000000000
(279.150000) can0 00F#FFFFFF07FFFF0000
(279.190000) can0 00F#FFFFFF07FFFF0000
(279.230000) can0 00F#FFFFFF07FFFF0000
(279.270000) can0 171#0200000000000000
(279.320000) can0 504#0000000000000000
(279.360000) can0 173#0D0C040000000000
(279.400000) can0 00F#FFFFFFFFFFFF0000
(279.440000) can0 00F#FFFFFF08FFFF0000
(279.480000) can0 00F#FFFFFF08FFFF0000
(279.520000) can0 504#0000000000000000
(279.570000) can0 173#0D0C040000000000
(279.610000) can0 100#FF0000FF00000000
(279.650000) can0 00F#FFFFFFFFFFFF0000
(279.690000) can0 00F#FFFFFF09FFFF0000
(279.730000) can0 00F#FFFFFF09FFFF0000
(279.770000) can0 173#0D0C040000000000
(279.820000) can0 501#00FF00FF00000300
(279.860000) can0 171#0200000000000000
(279.900000) can0 501#00FF00FF00000300
(279.940000) can0 440#4004000000000000
(279.980000) can0 173#0D0C040000000000
(280.020000) can0 00F#FFFFFFFFFFFF0000
(280.070000) can0 00F#FFFFFF0AFFFF0000
(280.110000) can0 501#00FF00FF00000300
(280.150000) can0 504#0000000000000000
(280.190000) can0 173#0D0C040000000000
(280.230000) can0 504#0000000000000000
(280.270000) can0 171#0200000000000000
(280.320000) can0 504#0000000000000000
(280.360000) can0 00F#FFFFFF0BFFFF0000
(280.400000) can0 00F#FFFFFF0BFFFF0000
(280.440000) can0 00F#FFFFFF0BFFFF0000
(280.480000) can0 171#0200000000000000
(280.520000) can0 504#0000000000000000
(280.560000) can0 173#0D0C040000000000
(280.610000) can0 00F#FFFFFFFFFFFF0000
(280.650000) can0 00F#FFFFFF0CFFFF0000
(280.690000) can0 00F#FFFFFF0CFFFF0000
(280.730000) can0 00F#FFFFFF0CFFFF0000
(280.770000) can0 173#0D0C040000000000
(280.810000) can0 501#00FF00FF00000300
(280.860000) can0 171#0200000000000000
(280.900000) can0 501#00FF00FF00000300
(280.940000) can0 440#4004000000000000
(280.980000) can0 173#0D0C040000000000
(281.020000) can0 504#0000000000000000
(281.060000) can0 171#0200000000000000
(281.110000) can0 501#00FF00FF00000300
(281.150000) can0 173#0D0C040000000000
(281.190000) can0 504#0000000000000000
(281.250000) can0 171#0200000000000000
(281.270000) can0 501#00FF00FF00000300
(281.310000) can0 504#0000000000000000
(281.360000) can0 173#0D0C040000000000
(281.450000) can0 171#0200000000000000
(281.460000) can0 501#00FF00FF00000300
(281.480000) can0 504#0000000000000000
(281.520000) can0 00F#FFFFFF0DFFFF0000
(281.560000) can0 173#0D0C040000000000
(281.610000) can0 00F#FFFFFF0DFFFF0000
(281.650000) can0 00F#FFFFFF0DFFFF0000
(281.690000) can0 570#FFFFFFFFFFFFFFFF
(281.730000) can0 504#0000000000000000
(281.770000) can0 173#0D0C040000000000
(281.810000) can0 00F#FFFFFFFFFFFF0000
(281.850000) can0 00F#FFFFFF0EFFFF0000
(281.890000) can0 171#0200000000000000
(281.940000) can0 00F#FFFFFF0EFFFF0000
(281.980000) can0 173#0D0C040000000000
(282.020000) can0 00F#FFFFFFFFFFFF0000
(282.060000) can0 171#0200000000000000
(282.100000) can0 501#00FF00FF00000300
(282.140000) can0 00F#FFFFFFFFFFFF0000
(282.190000) can0 00F#FFFFFF0FFFFF0000
(282.230000) can0 00F#FFFFFF0FFFFF0000
(282.270000) can0 171#0200000000000000
(282.310000) can0 501#00FF00FF00000300
(282.350000) can0 504#0000000000000000
(282.390000) can0 173#0D0C040000000000
(282.440000) can0 00F#FFFFFFFFFFFF0000
(282.480000) can0 00F#FFFFFF10FFFF0000
(282.520000) can0 00F#FFFFFF10FFFF0000
(282.560000) can0 00F#FFFFFF10FFFF0000
(282.600000) can0 173#0D0C040000000000
(282.640000) can0 570#FFFFFFFFFFFFFFFF
(282.690000) can0 171#0200000000000000
(282.730000) can0 504#0000000000000000
(282.770000) can0 173#0D0C040000000000
(282.810000) can0 00F#FFFFFF11FFFF0000
(282.850000) can0 00F#FFFFFF11FFFF0000
(282.890000) can0 171#0200000000000000
(282.940000) can0 504#0000000000000000
(282.980000) can0 173#0D0C040000000000
(283.020000) can0 00F#FFFFFFFFFFFF0000
(283.060000) can0 00F#FFFFFF12FFFF0000
(283.100000) can0 171#0200000000000000
(283.140000) can0 00F#FFFFFF12FFFF0000
(283.190000) can0 173#0D0C040000000000
(283.230000) can0 504#0000000000000000
(283.270000) can0 171#0200000000000000
(283.310000) can0 504#0000000000000000
(283.350000) can0 173#0D0C040000000000
(283.390000) can0 00F#FFFFFFFFFFFF0000
(283.440000) can0 00F#FFFFFF13FFFF0000
(283.480000) can0 00F#FFFFFF13FFFF0000
(283.520000) can0 504#0000000000000000
(283.560000) can0 173#0D0C040000000000
(283.600000) can0 100#FF0000FF00000000
(283.640000) can0 570#FFFFFFFFFFFFFFFF
(283.680000) can0 171#0200000000000000
(283.730000) can0 504#0000000000000000
(283.770000) can0 173#0D0C040000000000
(283.810000) can0 00F#FFFFFF14FFFF0000
(283.850000) can0 00F#FFFFFF14FFFF0000
(283.890000) can0 00F#FFFFFF14FFFF0000
(283.930000) can0 504#0000000000000000
(283.980000) can0 173#0D0C040000000000
(284.020000) can0 501#00FF00FF00000300
(284.060000) can0 171#0200000000000000
(284.100000) can0 501#00FF00FF00000300
(284.140000) can0 173#0D0C040000000000
(284.180000) can0 504#0000000000000000
(284.250000) can0 171#0200000000000000
(284.270000) can0 501#00FF00FF00000300
(284.310000) can0 504#0000000000000000
(284.350000) can0 173#0D0C040000000000
(284.450000) can0 171#0200000000000000
(284.460000) can0 501#00FF00FF00000300
(284.480000) can0 504#0000000000000000
(284.520000) can0 00F#FFFFFFFFFFFF0000
(284.560000) can0 173#0D0C040000000000
(284.600000) can0 00F#FFFFFF13FFFF0000
(284.640000) can0 00F#FFFFFF13FFFF0000
(284.680000) can0 570#FFFFFFFFFFFFFFFF
(284.730000) can0 504#0000000000000000
(284.770000) can0 173#0D0C040000000000
(284.810000) can0 00F#FFFFFFFFFFFF0000
(284.850000) can0 00F#FFFFFF12FFFF0000
(284.890000) can0 171#0200000000000000
(284.930000) can0 504#0000000000000000
(284.980000) can0 173#0D0C040000000000
(285.020000) can0 00F#FFFFFF13FFFF0000
(285.060000) can0 171#0200000000000000
(285.100000) can0 501#00FF00FF00000300
(285.140000) can0 00F#FFFFFFFFFFFF0000
(285.180000) can0 00F#FFFFFF11FFFF0000
(285.220000) can0 00F#FFFFFF11FFFF0000
(285.270000) can0 00F#FFFFFF11FFFF0000
(285.310000) can0 501#00FF00FF00000300
(285.350000) can0 504#0000000000000000
(285.390000) can0 173#0D0C040000000000
(285.430000) can0 504#0000000000000000
(285.470000) can0 00F#FFFFFFFFFFFF0000
(285.520000) can0 504#0000000000000000
(285.560000) can0 00F#FFFFFF10FFFF0000
(285.600000) can0 00F#FFFFFF10FFFF0000
(285.640000) can0 100#FF0000FF00000000
(285.680000) can0 570#FFFFFFFFFFFFFFFF
(285.720000) can0 504#0000000000000000
(285.770000) can0 173#0D0C040000000000
(285.810000) can0 00F#FFFFFFFFFFFF0000
(285.850000) can0 00F#FFFFFF0FFFFF0000
(285.890000) can0 00F#FFFFFF0FFFFF0000
(285.930000) can0 504#0000000000000000
(285.970000) can0 173#0D0C040000000000
(286.010000) can0 171#0200000000000000
(286.060000) can0 171#0200000000000000
(286.100000) can0 501#00FF00FF00000300
(286.140000) can0 00F#FFFFFFFFFFFF0000
(286.180000) can0 00F#FFFFFF0EFFFF0000
(286.220000) can0 00F#FFFFFF0EFFFF0000
(286.260000) can0 171#0200000000000000
(286.310000) can0 501#00FF00FF00000300
(286.350000) can0 504#0000000000000000
(286.390000) can0 173#0D0C040000000000
(286.430000) can0 00F#FFFFFFFFFFFF0000
(286.470000) can0 00F#FFFFFF0DFFFF0000
(286.510000) can0 504#0000000000000000
(286.550000) can0 00F#FFFFFF0DFFFF0000
(286.600000) can0 173#0D0C040000000000
(286.640000) can0 570#FFFFFFFFFFFFFFFF
(286.680000) can0 171#0200000000000000
(286.720000) can0 504#0000000000000000
(286.760000) can0 00F#FFFFFFFFFFFF0000
(286.800000) can0 00F#FFFFFF0CFFFF0000
(286.850000) can0 00F#FFFFFF0CFFFF0000
(286.890000) can0 00F#FFFFFF0CFFFF0000
(286.930000) can0 504#0000000000000000
(286.970000) can0 173#0D0C040000000000
(287.010000) can0 504#0000000000000000
(287.050000) can0 171#0200000000000000
(287.100000) can0 501#00FF00FF00000300
(287.140000) can0 00F#FFFFFFFFFFFF0000
(287.180000) can0 00F#FFFFFF0BFFFF0000
(287.220000) can0 00F#FFFFFF0BFFFF0000
(287.260000) can0 171#0200000000000000
(287.300000) can0 501#00FF00FF00000300
(287.350000) can0 504#0000000000000000
(287.390000) can0 173#0D0C040000000000
(287.430000) can0 504#0000000000000000
(287.470000) can0 171#0200000000000000
(287.510000) can0 504#0000000000000000
(287.550000) can0 00F#FFFFFF0AFFFF0000
(287.600000) can0 00F#FFFFFF0AFFFF0000
(287.640000) can0 00F#FFFFFF0AFFFF0000
(287.680000) can0 570#FFFFFFFFFFFFFFFF
(287.720000) can0 504#0000000000000000
(287.760000) can0 173#0D0C040000000000
(287.800000) can0 501#00FF00FF00000300
(287.850000) can0 171#0200000000000000
(287.890000) can0 501#00FF00FF00000300
(287.930000) can0 440#4004000000000000
(287.970000) can0 173#0D0C040000000000
(288.010000) can0 504#0000000000000000
(288.050000) can0 171#0200000000000000
(288.100000) can0 501#00FF00FF00000300
(288.140000) can0 173#0D0C040000000000
(288.180000) can0 504#0000000000000000
(288.250000) can0 171#0200000000000000
(288.260000) can0 501#00FF00FF00000300
(288.300000) can0 504#0000000000000000
(288.340000) can0 173#0D0C040000000000
(288.450000) can0 171#0200000000000000
(288.460000) can0 501#00FF00FF00000300
(288.470000) can0 504#0000000000000000
(288.520000) can0 173#0D0C040000000000
(288.620000) can0 570#FFFFFFFFFFFFFFFF
(288.650000) can0 171#0200000000000000
(288.660000) can0 501#00FF00FF00000300
(288.680000) can0 504#0000000000000000
(288.720000) can0 173#0D0C040000000000
(288.850000) can0 171#0200000000000000
(288.860000) can0 501#00FF00FF00000300
(288.870000) can0 504#0000000000000000
(288.910000) can0 440#4004000000000000
(288.950000) can0 173#0D0C040000000000
(289.050000) can0 171#0200000000000000
(289.060000) can0 501#00FF00FF00000300
(289.080000) can0 504#0000000000000000
(289.120000) can0 173#0D0C040000000000
(289.250000) can0 171#0200000000000000
(289.260000) can0 501#00FF00FF00000300
(289.270000) can0 504#0000000000000000
(289.320000) can0 173#0D0C040000000000
(289.450000) can0 171#0200000000000000
(289.460000) can0 501#00FF00FF00000300
(289.470000) can0 504#0000000000000000
(289.520000) can0 173#0D0C040000000000
(289.570000) can0 100#FF0000FF00000000
(289.620000) can0 570#FFFFFFFFFFFFFFFF
(289.650000) can0 171#0200000000000000
(289.680000) can0 501#00FF00FF00000300
(289.720000) can0 504#0000000000000000
(289.760000) can0 173#0D0C040000000000
(289.850000) can0 171#0200000000000000
(289.860000) can0 501#00FF00FF00000300
(289.890000) can0 504#0000000000000000
(289.930000) can0 440#4004000000000000
(289.970000) can0 173#0D0C040000000000
(290.050000) can0 171#0200000000000000
(290.060000) can0 501#00FF00FF00000300
(290.090000) can0 504#0000000000000000
(290.140000) can0 173#0D0C040000000000
(290.250000) can0 171#0200000000000000
(290.260000) can0 501#00FF00FF00000300
(290.270000) can0 504#0000000000000000
(290.320000) can0 173#0D0C040000000000
(290.450000) can0 171#0200000000000000
(290.460000) can0 501#00FF00FF00000300
(290.470000) can0 504#0000000000000000
(290.520000) can0 173#0D0C040000000000
(290.620000) can0 570#FFFFFFFFFFFFFFFF
(290.650000) can0 171#0200000000000000
(290.660000) can0 501#00FF00FF00000300
(290.680000) can0 504#0000000000000000
(290.720000) can0 173#0D0C040000000000
