(157.600000) can0 100#FF0000FF00000000
(157.650000) can0 570#FFFFFFFFFFFFFFFF
(157.680000) can0 171#0200000000000000
(157.700000) can0 501#00FF00FF00000300
(157.750000) can0 504#0000000000000000
(157.790000) can0 173#0D0C040000000000
(157.880000) can0 171#0200000000000000
(157.890000) can0 501#00FF00FF00000300
(157.910000) can0 504#0000000000000000
(157.950000) can0 440#4004000000000000
(157.990000) can0 173#0D0C040000000000
(158.080000) can0 171#0200000000000000
(158.090000) can0 501#00FF00FF00000300
(158.120000) can0 504#0000000000000000
(158.160000) can0 173#0D0C040000000000
(158.280000) can0 171#0200000000000000
(158.290000) can0 501#00FF00FF00000300
(158.300000) can0 504#0000000000000000
(158.350000) can0 173#0D0C040000000000
(158.480000) can0 171#0200000000000000
(158.490000) can0 501#00FF00FF00000300
(158.500000) can0 504#0000000000000000
(158.550000) can0 173#0D0C040000000000
(158.650000) can0 570#FFFFFFFFFFFFFFFF
(158.680000) can0 171#0200000000000000
(158.690000) can0 501#00FF00FF00000300
(158.710000) can0 504#0000000000000000
(158.750000) can0 173#0D0C040000000000
(158.880000) can0 171#0200000000000000
(158.890000) can0 501#00FF00FF00000300
(158.900000) can0 504#0000000000000000
(158.940000) can0 440#4004000000000000
(158.980000) can0 173#0D0C040000000000
(159.080000) can0 171#0200000000000000
(159.090000) can0 501#00FF00FF00000300
(159.100000) can0 504#0000000000000000
(159.150000) can0 173#0D0C040000000000
(159.280000) can0 171#0200000000000000
(159.290000) can0 501#00FF00FF00000300
(159.300000) can0 504#0000000000000000
(159.350000) can0 173#0D0C040000000000
(159.480000) can0 171#0200000000000000
(159.490000) can0 501#00FF00FF00000300
(159.500000) can0 504#0000000000000000
(159.550000) can0 173#0D0C040000000000
(159.600000) can0 100#FF0000FF00000000
(159.650000) can0 570#FFFFFFFFFFFFFFFF
(159.680000) can0 171#0200000000000000
(159.700000) can0 501#00FF00FF00000300
(159.740000) can0 504#0000000000000000
(159.780000) can0 173#0D0C040000000000
(159.880000) can0 171#0200000000000000
(159.890000) can0 501#00FF00FF00000300
(159.910000) can0 504#0000000000000000
(159.950000) can0 440#4004000000000000
(159.990000) can0 173#0D0C040000000000
(160.080000) can0 171#0200000000000000
(160.090000) can0 501#00FF00FF00000300
(160.120000) can0 504#0000000000000000
(160.160000) can0 173#0D0C040000000000
(160.280000) can0 171#0200000000000000
(160.290000) can0 501#00FF00FF00000300
(160.300000) can0 504#0000000000000000
(160.350000) can0 173#0D0C040000000000
(160.480000) can0 171#0200000000000000
(160.490000) can0 501#00FF00FF00000300
(160.500000) can0 504#0000000000000000
(160.550000) can0 173#0D0C040000000000
(160.650000) can0 570#FFFFFFFFFFFFFFFF
(160.680000) can0 171#0200000000000000
(160.690000) can0 501#00FF00FF00000300
(160.710000) can0 504#0000000000000000
(160.750000) can0 173#0D0C040000000000
(160.880000) can0 171#0200000000000000
(160.890000) can0 501#00FF00FF00000300
(160.900000) can0 504#0000000000000000
(160.930000) can0 440#4004000000000000
(160.980000) can0 173#0D0C040000000000
(161.080000) can0 171#0200000000000000
(161.090000) can0 501#00FF00FF00000300
(161.100000) can0 504#0000000000000000
(161.150000) can0 173#0D0C040000000000
(161.280000) can0 171#0200000000000000
(161.290000) can0 501#00FF00FF00000300
(161.300000) can0 504#0000000000000000
(161.350000) can0 173#0D0C040000000000
(161.480000) can0 171#0200000000000000
(161.490000) can0 501#00FF00FF00000300
(161.500000) can0 504#0000000000000000
(161.550000) can0 173#0D0C040000000000
(161.600000) can0 100#FF0000FF00000000
(161.650000) can0 570#FFFFFFFFFFFFFFFF
(161.680000) can0 171#0200000000000000
(161.700000) can0 501#00FF00FF00000300
(161.740000) can0 504#0000000000000000
(161.780000) can0 173#0D0C040000000000
(161.880000) can0 171#0200000000000000
(161.890000) can0 501#00FF00FF00000300
(161.910000) can0 504#0000000000000000
(161.950000) can0 440#4004000000000000
(161.990000) can0 173#0D0C040000000000
(162.080000) can0 171#0200000000000000
(162.090000) can0 501#00FF00FF00000300
(162.120000) can0 504#0000000000000000
(162.160000) can0 173#0D0C040000000000
(162.280000) can0 171#0200000000000000
(162.290000) can0 501#00FF00FF00000300
(162.300000) can0 504#0000000000000000
(162.350000) can0 173#0D0C040000000000
(162.480000) can0 171#0200000000000000
(162.490000) can0 501#00FF00FF00000300
(162.500000) can0 504#0000000000000000
(162.550000) can0 173#0D0C040000000000
(162.650000) can0 570#FFFFFFFFFFFFFFFF
(162.680000) can0 171#0200000000000000
(162.690000) can0 501#00FF00FF00000300
(162.700000) can0 504#0000000000000000
(162.750000) can0 173#0D0C040000000000
(162.880000) can0 171#0200000000000000
(162.890000) can0 501#00FF00FF00000300
(162.900000) can0 504#0000000000000000
(162.940000) can0 440#4004000000000000
(162.980000) can0 173#0D0C040000000000
(163.080000) can0 171#0200000000000000
(163.090000) can0 501#00FF00FF00000300
(163.100000) can0 504#0000000000000000
(163.150000) can0 173#0D0C040000000000
(163.270000) can0 171#0200000000000000
(163.290000) can0 501#00FF00FF00000300
(163.300000) can0 504#0000000000000000
(163.350000) can0 173#0D0C040000000000
(163.480000) can0 171#0200000000000000
(163.490000) can0 501#00FF00FF00000300
(163.500000) can0 504#0000000000000000
(163.550000) can0 173#0D0C040000000000
(163.580000) can0 00F#FFFFFFFFFFFF0000
(163.620000) can0 00F#FFFF02FFFFFF0000
(163.660000) can0 00F#FFFF02FFFFFF0000
(163.700000) can0 00F#FFFF02FFFFFF0000
(163.740000) can0 504#0000000000000000
(163.780000) can0 173#0D0C040000000000
(163.830000) can0 100#FF0000FF00000000
(163.880000) can0 171#0200000000000000
(163.910000) can0 501#00FF00FF00000300
(163.950000) can0 440#4004000000000000
(163.990000) can0 173#0D0C040000000000
(164.030000) can0 504#0000000000000000
(164.080000) can0 171#0200000000000000
(164.120000) can0 501#00FF00FF00000300
(164.160000) can0 00F#FFFFFFFFFFFF0000
(164.200000) can0 00F#FFFF03FFFFFF0000
(164.240000) can0 00F#FFFF03FFFFFF0000
(164.280000) can0 171#0200000000000000
(164.330000) can0 501#00FF00FF00000300
(164.370000) can0 504#0000000000000000
(164.410000) can0 173#0D0C040000000000
(164.450000) can0 504#0000000000000000
(164.490000) can0 171#0200000000000000
(164.530000) can0 504#0000000000000000
(164.580000) can0 173#0D0C040000000000
(164.620000) can0 00F#FFFFFFFFFFFF0000
(164.660000) can0 00F#FFFF04FFFFFF0000
(164.700000) can0 570#FFFFFFFFFFFFFFFF
(164.740000) can0 504#0000000000000000
(164.780000) can0 173#0D0C040000000000
(164.830000) can0 501#00FF00FF00000300
(164.880000) can0 171#0200000000000000
(164.910000) can0 501#00FF00FF00000300
(164.950000) can0 440#4004000000000000
(164.990000) can0 173#0D0C040000000000
(165.030000) can0 504#0000000000000000
(165.070000) can0 00F#FFFFFFFFFFFF0000
(165.120000) can0 171#0200000000000000
(165.160000) can0 00F#FFFF05FFFFFF0000
(165.200000) can0 173#0D0C040000000000
(165.240000) can0 00F#FFFF05FFFFFF0000
(165.280000) can0 171#0200000000000000
(165.320000) can0 501#00FF00FF00000300
(165.370000) can0 173#0D0C040000000000
(165.410000) can0 504#0000000000000000
(165.480000) can0 171#0200000000000000
(165.490000) can0 501#00FF00FF00000300
(165.530000) can0 504#0000000000000000
(165.570000) can0 00F#FFFF06FFFFFF0000
(165.620000) can0 00F#FFFF06FFFFFF0000
(165.660000) can0 00F#FFFF06FFFFFF0000
(165.700000) can0 570#FFFFFFFFFFFFFFFF
(165.740000) can0 504#0000000000000000
(165.780000) can0 173#0D0C040000000000
(165.820000) can0 00F#FFFFFFFFFFFF0000
(165.880000) can0 171#0200000000000000
(165.910000) can0 501#00FF00FF00000300
(165.950000) can0 440#4004000000000000
(165.990000) can0 173#0D0C040000000000
(166.030000) can0 00F#FFFFFFFFFFFF0000
(166.070000) can0 00F#FFFF07FFFFFF0000
(166.110000) can0 00F#FFFF07FFFFFF0000
(166.160000) can0 504#0000000000000000
(166.200000) can0 173#0D0C040000000000
(166.240000) can0 504#0000000000000000
(166.280000) can0 171#0200000000000000
(166.320000) can0 501#00FF00FF00000300
(166.360000) can0 173#0D0C040000000000
(166.410000) can0 504#0000000000000000
(166.480000) can0 171#0200000000000000
(166.490000) can0 501#00FF00FF00000300
(166.530000) can0 504#0000000000000000
(166.570000) can0 00F#FFFF08FFFFFF0000
(166.610000) can0 00F#FFFF08FFFFFF0000
(166.660000) can0 00F#FFFF08FFFFFF0000
(166.700000) can0 570#FFFFFFFFFFFFFFFF
(166.740000) can0 504#0000000000000000
(166.780000) can0 173#0D0C040000000000
(166.820000) can0 00F#FFFFFFFFFFFF0000
(166.880000) can0 171#0200000000000000
(166.900000) can0 501#00FF00FF00000300
(166.950000) can0 440#4004000000000000
(166.990000) can0 173#0D0C040000000000
(167.030000) can0 00F#FFFFFFFFFFFF0000
(167.070000) can0 00F#FFFF09FFFFFF0000
(167.110000) can0 00F#FFFF09FFFFFF0000
(167.150000) can0 504#0000000000000000
(167.200000) can0 173#0D0C040000000000
(167.240000) can0 504#0000000000000000
(167.280000) can0 171#0200000000000000
(167.320000) can0 501#00FF00FF00000300
(167.360000) can0 173#0D0C040000000000
(167.400000) can0 504#0000000000000000
(167.460000) can0 00F#FFFFFFFFFFFF0000
(167.490000) can0 171#0200000000000000
(167.530000) can0 00F#FFFF0AFFFFFF0000
(167.570000) can0 00F#FFFF0AFFFFFF0000
(167.610000) can0 00F#FFFF0AFFFFFF0000
(167.650000) can0 100#FF0000FF00000000
(167.700000) can0 570#FFFFFFFFFFFFFFFF
(167.740000) can0 501#00FF00FF00000300
(167.780000) can0 504#0000000000000000
(167.820000) can0 173#0D0C040000000000
(167.860000) can0 501#00FF00FF00000300
(167.900000) can0 171#0200000000000000
(167.950000) can0 504#0000000000000000
(167.990000) can0 440#4004000000000000
(168.030000) can0 173#0D0C040000000000
(168.070000) can0 501#00FF00FF00000300
(168.110000) can0 171#0200000000000000
(168.150000) can0 504#0000000000000000
(168.200000) can0 173#0D0C040000000000
(168.240000) can0 501#00FF00FF00000300
(168.280000) can0 171#0200000000000000
(168.320000) can0 501#00FF00FF00000300
(168.360000) can0 173#0D0C040000000000
(168.400000) can0 00F#FFFFFFFFFFFF0000
(168.440000) can0 00F#FFFF0BFFFFFF0000
(168.490000) can0 00F#FFFF0BFFFFFF0000
(168.530000) can0 00F#FFFF0BFFFFFF0000
(168.570000) can0 504#0000000000000000
(168.610000) can0 173#0D0C040000000000
(168.650000) can0 570#FFFFFFFFFFFFFFFF
(168.690000) can0 171#0200000000000000
(168.740000) can0 501#00FF00FF00000300
(168.780000) can0 504#0000000000000000
(168.820000) can0 173#0D0C040000000000
(168.860000) can0 00F#FFFFFFFFFFFF0000
(168.900000) can0 00F#FFFF0CFFFFFF0000
(168.940000) can0 00F#FFFF0CFFFFFF0000
(168.990000) can0 00F#FFFF0CFFFFFF0000
(169.030000) can0 173#0D0C040000000000
(169.070000) can0 504#0000000000000000
(169.110000) can0 171#0200000000000000
(169.150000) can0 504#0000000000000000
(169.190000) can0 173#0D0C040000000000
(169.230000) can0 501#00FF00FF00000300
(169.280000) can0 171#0200000000000000
(169.320000) can0 501#00FF00FF00000300
(169.360000) can0 00F#FFFFFFFFFFFF0000
(169.400000) can0 00F#FFFF0DFFFFFF0000
(169.440000) can0 00F#FFFF0DFFFFFF0000
(169.480000) can0 171#0200000000000000
(169.530000) can0 501#00FF00FF00000300
(169.570000) can0 504#0000000000000000
(169.610000) can0 173#0D0C040000000000
(169.650000) can0 100#FF0000FF00000000
(169.690000) can0 570#FFFFFFFFFFFFFFFF
(169.730000) can0 501#00FF00FF00000300
(169.770000) can0 00F#FFFFFFFFFFFF0000
(169.820000) can0 00F#FFFF0EFFFFFF0000
(169.860000) can0 00F#FFFF0EFFFFFF0000
(169.900000) can0 171#0200000000000000
(169.940000) can0 504#0000000000000000
(169.980000) can0 440#4004000000000000
(170.020000) can0 173#0D0C040000000000
(170.070000) can0 504#0000000000000000
(170.110000) can0 171#0200000000000000
(170.150000) can0 00F#FFFFFFFFFFFF0000
(170.190000) can0 173#0D0C040000000000
(170.230000) can0 00F#FFFF0FFFFFFF0000
(170.270000) can0 00F#FFFF0FFFFFFF0000
(170.320000) can0 171#0200000000000000
(170.360000) can0 504#0000000000000000
(170.400000) can0 173#0D0C040000000000
(170.440000) can0 501#00FF00FF00000300
(170.480000) can0 171#0200000000000000
(170.520000) can0 501#00FF00FF00000300
(170.570000) can0 00F#FFFFFFFFFFFF0000
(170.610000) can0 00F#FFFF10FFFFFF0000
(170.650000) can0 00F#FFFF10FFFFFF0000
(170.690000) can0 570#FFFFFFFFFFFFFFFF
(170.730000) can0 501#00FF00FF00000300
(170.770000) can0 504#0000000000000000
(170.820000) can0 173#0D0C040000000000
(170.860000) can0 504#0000000000000000
(170.900000) can0 171#0200000000000000
(170.940000) can0 504#0000000000000000
(170.980000) can0 440#4004000000000000
(171.020000) can0 00F#FFFFFFFFFFFF0000
(171.070000) can0 00F#FFFF11FFFFFF0000
(171.110000) can0 00F#FFFF11FFFFFF0000
(171.150000) can0 504#0000000000000000
(171.190000) can0 173#0D0C040000000000
(171.230000) can0 501#00FF00FF00000300
(171.280000) can0 171#0200000000000000
(171.320000) can0 501#00FF00FF00000300
(171.360000) can0 173#0D0C040000000000
(171.400000) can0 504#0000000000000000
(171.450000) can0 00F#FFFFFFFFFFFF0000
(171.480000) can0 171#0200000000000000
(171.520000) can0 501#00FF00FF00000300
(171.560000) can0 00F#FFFF12FFFFFF0000
(171.610000) can0 00F#FFFF12FFFFFF0000
(171.650000) can0 100#FF0000FF00000000
(171.690000) can0 570#FFFFFFFFFFFFFFFF
(171.730000) can0 501#00FF00FF00000300
(171.770000) can0 504#0000000000000000
(171.810000) can0 173#0D0C040000000000
(171.860000) can0 00F#FFFF12FFFFFF0000
(171.900000) can0 171#0200000000000000
(171.940000) can0 504#0000000000000000
(171.980000) can0 00F#FFFFFFFFFFFF0000
(172.020000) can0 00F#FFFF13FFFFFF0000
(172.060000) can0 00F#FFFF13FFFFFF0000
(172.100000) can0 00F#FFFF13FFFFFF0000
(172.150000) can0 504#0000000000000000
(172.190000) can0 173#0D0C040000000000
(172.230000) can0 501#00FF00FF00000300
(172.270000) can0 171#0200000000000000
(172.310000) can0 501#00FF00FF00000300
(172.350000) can0 173#0D0C040000000000
(172.400000) can0 504#0000000000000000
(172.470000) can0 171#0200000000000000
(172.480000) can0 501#00FF00FF00000300
(172.520000) can0 504#0000000000000000
(172.560000) can0 00F#FFFF14FFFFFF0000
(172.600000) can0 00F#FFFF14FFFFFF0000
(172.650000) can0 00F#FFFF14FFFFFF0000
(172.690000) can0 570#FFFFFFFFFFFFFFFF
(172.730000) can0 501#00FF00FF00000300
(172.770000) can0 504#0000000000000000
(172.810000) can0 173#0D0C040000000000
(172.850000) can0 00F#FFFFFFFFFFFF0000
(172.900000) can0 171#0200000000000000
(172.940000) can0 504#0000000000000000
(172.980000) can0 440#4004000000000000
(173.020000) can0 173#0D0C040000000000
(173.060000) can0 501#00FF00FF00000300
(173.100000) can0 171#0200000000000000
(173.150000) can0 504#0000000000000000
(173.190000) can0 173#0D0C040000000000
(173.230000) can0 501#00FF00FF00000300
(173.270000) can0 171#0200000000000000
(173.310000) can0 501#00FF00FF00000300
(173.350000) can0 173#0D0C040000000000
(173.390000) can0 504#0000000000000000
(173.480000) can0 171#0200000000000000
(173.480000) can0 501#00FF00FF00000300
(173.520000) can0 504#0000000000000000
(173.560000) can0 173#0D0C040000000000
(173.600000) can0 100#FF0000FF00000000
(173.650000) can0 570#FFFFFFFFFFFFFFFF
(173.690000) can0 171#0200000000000000
(173.730000) can0 504#0000000000000000
(173.770000) can0 173#0D0C040000000000
(173.810000) can0 501#00FF00FF00000300
(173.870000) can0 171#0200000000000000
(173.890000) can0 501#00FF00FF00000300
(173.940000) can0 504#0000000000000000
(173.980000) can0 173#0D0C040000000000
(174.020000) can0 440#4004000000000000
(174.080000) can0 171#0200000000000000
(174.100000) can0 501#00FF00FF00000300
(174.140000) can0 504#0000000000000000
(174.190000) can0 173#0D0C040000000000
(174.270000) can0 171#0200000000000000
(174.290000) can0 501#00FF00FF00000300
(174.310000) can0 504#0000000000000000
(174.350000) can0 173#0D0C040000000000
(174.480000) can0 171#0200000000000000
(174.480000) can0 501#00FF00FF00000300
(174.500000) can0 504#0000000000000000
(174.540000) can0 173#0D0C040000000000
(174.640000) can0 570#FFFFFFFFFFFFFFFF
(174.670000) can0 171#0200000000000000
(174.690000) can0 501#00FF00FF00000300
(174.700000) can0 504#0000000000000000
(174.740000) can0 173#0D0C040000000000
(174.880000) can0 171#0200000000000000
(174.880000) can0 501#00FF00FF00000300
(174.900000) can0 504#0000000000000000
(174.930000) can0 440#4004000000000000
(174.970000) can0 173#0D0C040000000000
(175.080000) can0 171#0200000000000000
(175.090000) can0 501#00FF00FF00000300
(175.100000) can0 504#0000000000000000
(175.140000) can0 173#0D0C040000000000
(175.270000) can0 171#0200000000000000
(175.280000) can0 501#00FF00FF00000300
(175.300000) can0 504#0000000000000000
(175.340000) can0 173#0D0C040000000000
(175.470000) can0 171#0200000000000000
(175.480000) can0 501#00FF00FF00000300
(175.490000) can0 504#0000000000000000
(175.550000) can0 173#0D0C040000000000
(175.590000) can0 100#FF0000FF00000000
(175.640000) can0 570#FFFFFFFFFFFFFFFF
(175.670000) can0 171#0200000000000000
(175.700000) can0 501#00FF00FF00000300
(175.740000) can0 504#0000000000000000
(175.780000) can0 173#0D0C040000000000
(175.880000) can0 171#0200000000000000
(175.880000) can0 501#00FF00FF00000300
(175.910000) can0 504#0000000000000000
(175.950000) can0 440#4004000000000000
(175.990000) can0 173#0D0C040000000000
(176.070000) can0 171#0200000000000000
(176.080000) can0 501#00FF00FF00000300
(176.110000) can0 504#0000000000000000
(176.160000) can0 173#0D0C040000000000
(176.270000) can0 171#0200000000000000
(176.280000) can0 501#00FF00FF00000300
(176.290000) can0 504#0000000000000000
(176.340000) can0 173#0D0C040000000000
(176.480000) can0 171#0200000000000000
(176.480000) can0 501#00FF00FF00000300
(176.490000) can0 504#0000000000000000
(176.540000) can0 173#0D0C040000000000
(176.640000) can0 570#FFFFFFFFFFFFFFFF
(176.670000) can0 171#0200000000000000
(176.690000) can0 501#00FF00FF00000300
(176.700000) can0 504#0000000000000000
(176.740000) can0 173#0D0C040000000000
(176.870000) can0 171#0200000000000000
(176.880000) can0 501#00FF00FF00000300
(176.890000) can0 504#0000000000000000
(176.930000) can0 440#4004000000000000
(176.970000) can0 173#0D0C040000000000
(177.080000) can0 171#0200000000000000
(177.080000) can0 501#00FF00FF00000300
(177.100000) can0 504#0000000000000000
(177.140000) can0 173#0D0C040000000000
(177.270000) can0 171#0200000000000000
(177.280000) can0 501#00FF00FF00000300
(177.290000) can0 504#0000000000000000
(177.340000) can0 173#0D0C040000000000
(177.470000) can0 171#0200000000000000
(177.480000) can0 501#00FF00FF00000300
(177.490000) can0 504#0000000000000000
(177.540000) can0 173#0D0C040000000000
(177.590000) can0 100#FF0000FF00000000
(177.640000) can0 570#FFFFFFFFFFFFFFFF
(177.670000) can0 171#0200000000000000
(177.700000) can0 501#00FF00FF00000300
(177.740000) can0 504#0000000000000000
(177.780000) can0 173#0D0C040000000000
(177.870000) can0 171#0200000000000000
(177.880000) can0 501#00FF00FF00000300
(177.910000) can0 504#0000000000000000
(177.950000) can0 440#4004000000000000
(177.990000) can0 173#0D0C040000000000
(178.070000) can0 171#0200000000000000
(178.080000) can0 501#00FF00FF00000300
(178.110000) can0 504#0000000000000000
(178.160000) can0 173#0D0C040000000000
(178.270000) can0 171#0200000000000000
(178.280000) can0 501#00FF00FF00000300
(178.290000) can0 504#0000000000000000
(178.340000) can0 173#0D0C040000000000
(178.470000) can0 171#0200000000000000
(178.480000) can0 501#00FF00FF00000300
(178.490000) can0 504#0000000000000000
(178.540000) can0 173#0D0C040000000000
(178.640000) can0 570#FFFFFFFFFFFFFFFF
(178.670000) can0 171#0200000000000000
(178.680000) can0 501#00FF00FF00000300
(178.700000) can0 504#0000000000000000
(178.740000) can0 173#0D0C040000000000
(178.870000) can0 171#0200000000000000
(178.880000) can0 501#00FF00FF00000300
(178.890000) can0 504#0000000000000000
(178.930000) can0 440#4004000000000000
(178.970000) can0 173#0D0C040000000000
(179.070000) can0 171#0200000000000000
(179.080000) can0 501#00FF00FF00000300
(179.100000) can0 504#0000000000000000
(179.140000) can0 00F#FFFF13FFFFFF0000
(179.180000) can0 173#0D0C040000000000
(179.220000) can0 00F#FFFF13FFFFFF0000
(179.260000) can0 00F#FFFF13FFFFFF0000
(179.300000) can0 171#0200000000000000
(179.350000) can0 504#0000000000000000
(179.390000) can0 173#0D0C040000000000
(179.430000) can0 00F#FFFFFFFFFFFF0000
(179.470000) can0 171#0200000000000000
(179.510000) can0 501#00FF00FF00000300
(179.550000) can0 00F#FFFFFFFFFFFF0000
(179.600000) can0 00F#FFFF12FFFFFF0000
(179.640000) can0 100#FF0000FF00000000
(179.680000) can0 00F#FFFF12FFFFFF0000
(179.720000) can0 171#0200000000000000
(179.760000) can0 504#0000000000000000
(179.800000) can0 173#0D0C040000000000
(179.850000) can0 504#0000000000000000
(179.890000) can0 171#0200000000000000
(179.930000) can0 504#0000000000000000
(179.970000) can0 00F#FFFF11FFFFFF0000
(180.010000) can0 00F#FFFF11FFFFFF0000
(180.050000) can0 00F#FFFF11FFFFFF0000
(180.100000) can0 171#0200000000000000
(180.140000) can0 504#0000000000000000
(180.180000) can0 173#0D0C040000000000
(180.220000) can0 501#00FF00FF00000300
(180.270000) can0 171#0200000000000000
(180.300000) can0 501#00FF00FF00000300
(180.350000) can0 00F#FFFFFFFFFFFF0000
(180.390000) can0 173#0D0C040000000000
(180.430000) can0 00F#FFFF10FFFFFF0000
(180.470000) can0 00F#FFFF10FFFFFF0000
(180.510000) can0 171#0200000000000000
(180.550000) can0 504#0000000000000000
(180.600000) can0 173#0D0C040000000000
(180.640000) can0 00F#FFFFFFFFFFFF0000
(180.680000) can0 570#FFFFFFFFFFFFFFFF
(180.720000) can0 00F#FFFF0FFFFFFF0000
(180.760000) can0 00F#FFFF0FFFFFFF0000
(180.800000) can0 173#0D0C040000000000
(180.850000) can0 504#0000000000000000
(180.890000) can0 171#0200000000000000
(180.930000) can0 504#0000000000000000
(180.970000) can0 440#4004000000000000
(181.010000) can0 173#0D0C040000000000
(181.050000) can0 00F#FFFF0EFFFFFF0000
(181.090000) can0 00F#FFFF0EFFFFFF0000
(181.140000) can0 504#0000000000000000
(181.180000) can0 173#0D0C040000000000
(181.220000) can0 501#00FF00FF00000300
(181.270000) can0 171#0200000000000000
(181.300000) can0 501#00FF00FF00000300
(181.340000) can0 00F#FFFFFFFFFFFF0000
(181.390000) can0 173#0D0C040000000000
(181.430000) can0 00F#FFFF0DFFFFFF0000
(181.470000) can0 00F#FFFF0DFFFFFF0000
(181.510000) can0 171#0200000000000000
(181.550000) can0 504#0000000000000000
(181.590000) can0 173#0D0C040000000000
(181.630000) can0 100#FF0000FF00000000
(181.680000) can0 00F#FFFFFFFFFFFF0000
(181.720000) can0 171#0200000000000000
(181.760000) can0 00F#FFFF0CFFFFFF0000
(181.800000) can0 173#0D0C040000000000
(181.840000) can0 504#0000000000000000
(181.880000) can0 171#0200000000000000
(181.930000) can0 504#0000000000000000
(181.970000) can0 440#4004000000000000
(182.010000) can0 00F#FFFFFFFFFFFF0000
(182.050000) can0 00F#FFFF0BFFFFFF0000
(182.090000) can0 00F#FFFF0BFFFFFF0000
(182.130000) can0 504#0000000000000000
(182.180000) can0 173#0D0C040000000000
(182.220000) can0 501#00FF00FF00000300
(182.270000) can0 171#0200000000000000
(182.300000) can0 501#00FF00FF00000300
(182.340000) can0 504#0000000000000000
(182.380000) can0 173#0D0C040000000000
(182.430000) can0 00F#FFFF0AFFFFFF0000
(182.470000) can0 00F#FFFF0AFFFFFF0000
(182.510000) can0 00F#FFFF0AFFFFFF0000
(182.550000) can0 504#0000000000000000
(182.590000) can0 173#0D0C040000000000
(182.630000) can0 00F#FFFFFFFFFFFF0000
(182.680000) can0 570#FFFFFFFFFFFFFFFF
(182.720000) can0 501#00FF00FF00000300
(182.760000) can0 504#0000000000000000
(182.800000) can0 173#0D0C040000000000
(182.840000) can0 171#0200000000000000
(182.880000) can0 171#0200000000000000
(182.930000) can0 504#0000000000000000
(182.970000) can0 440#4004000000000000
(183.010000) can0 173#0D0C040000000000
(183.050000) can0 501#00FF00FF00000300
(183.090000) can0 171#0200000000000000
(183.130000) can0 504#0000000000000000
(183.180000) can0 173#0D0C040000000000
(183.220000) can0 501#00FF00FF00000300
(183.270000) can0 171#0200000000000000
(183.300000) can0 501#00FF00FF00000300
(183.340000) can0 504#0000000000000000
(183.380000) can0 173#0D0C040000000000
(183.470000) can0 171#0200000000000000
(183.480000) can0 501#00FF00FF00000300
(183.510000) can0 504#0000000000000000
(183.550000) can0 173#0D0C040000000000
(183.590000) can0 100#FF0000FF00000000
(183.640000) can0 570#FFFFFFFFFFFFFFFF
(183.670000) can0 171#0200000000000000
(183.720000) can0 501#00FF00FF00000300
(183.760000) can0 173#0D0C040000000000
(183.800000) can0 504#0000000000000000
(183.870000) can0 171#0200000000000000
(183.880000) can0 501#00FF00FF00000300
(183.920000) can0 504#0000000000000000
(183.960000) can0 173#0D0C040000000000
(184.010000) can0 440#4004000000000000
(184.070000) can0 171#0200000000000000
(184.090000) can0 501#00FF00FF00000300
(184.130000) can0 504#0000000000000000
(184.170000) can0 173#0D0C040000000000
(184.270000) can0 171#0200000000000000
(184.280000) can0 501#00FF00FF00000300
(184.300000) can0 504#0000000000000000
(184.340000) can0 173#0D0C040000000000
(184.470000) can0 171#0200000000000000
(184.480000) can0 501#00FF00FF00000300
(184.490000) can0 504#0000000000000000
(184.540000) can0 173#0D0C040000000000
(184.640000) can0 570#FFFFFFFFFFFFFFFF
(184.670000) can0 171#0200000000000000
(184.680000) can0 501#00FF00FF00000300
(184.700000) can0 504#0000000000000000
(184.740000) can0 173#0D0C040000000000
(184.870000) can0 171#0200000000000000
(184.880000) can0 501#00FF00FF00000300
(184.890000) can0 504#0000000000000000
(184.930000) can0 440#4004000000000000
(184.970000) can0 173#0D0C040000000000
(185.070000) can0 171#0200000000000000
(185.080000) can0 501#00FF00FF00000300
(185.100000) can0 504#0000000000000000
(185.140000) can0 173#0D0C040000000000
(185.270000) can0 171#0200000000000000
(185.280000) can0 501#00FF00FF00000300
(185.290000) can0 504#0000000000000000
(185.340000) can0 173#0D0C040000000000
(185.470000) can0 171#0200000000000000
(185.480000) can0 501#00FF00FF00000300
(185.490000) can0 504#0000000000000000
(185.540000) can0 173#0D0C040000000000
(185.590000) can0 100#FF0000FF00000000
(185.640000) can0 570#FFFFFFFFFFFFFFFF
(185.670000) can0 171#0200000000000000
(185.700000) can0 501#00FF00FF00000300
(185.740000) can0 504#0000000000000000
(185.780000) can0 173#0D0C040000000000
(185.870000) can0 171#0200000000000000
(185.880000) can0 501#00FF00FF00000300
(185.900000) can0 504#0000000000000000
(185.950000) can0 440#4004000000000000
(185.990000) can0 173#0D0C040000000000
(186.070000) can0 171#0200000000000000
(186.080000) can0 501#00FF00FF00000300
(186.110000) can0 504#0000000000000000
(186.150000) can0 173#0D0C040000000000
(186.270000) can0 171#0200000000000000
(186.280000) can0 501#00FF00FF00000300
(186.290000) can0 504#0000000000000000
(186.340000) can0 173#0D0C040000000000
(186.470000) can0 171#0200000000000000
(186.480000) can0 501#00FF00FF00000300
(186.490000) can0 504#0000000000000000
(186.540000) can0 173#0D0C040000000000
(186.640000) can0 570#FFFFFFFFFFFFFFFF
(186.670000) can0 171#0200000000000000
(186.680000) can0 501#00FF00FF00000300
(186.700000) can0 504#0000000000000000
(186.740000) can0 173#0D0C040000000000
(186.870000) can0 171#0200000000000000
(186.880000) can0 501#00FF00FF00000300
(186.890000) can0 504#0000000000000000
(186.930000) can0 440#4004000000000000
(186.970000) can0 173#0D0C040000000000
(187.070000) can0 171#0200000000000000
(187.080000) can0 501#00FF00FF00000300
(187.100000) can0 504#0000000000000000
(187.140000) can0 173#0D0C040000000000
(187.270000) can0 171#0200000000000000
(187.280000) can0 501#00FF00FF00000300
(187.290000) can0 504#0000000000000000
(187.340000) can0 173#0D0C040000000000
(187.470000) can0 171#0200000000000000
(187.480000) can0 501#00FF00FF00000300
(187.490000) can0 504#0000000000000000
