(310.320000) can0 173#0D0C040000000000
(310.450000) can0 171#0200000000000000
(310.460000) can0 501#00FF00FF00000300
(310.470000) can0 504#0000000000000000
(310.520000) can0 173#0D0C040000000000
(310.620000) can0 570#FFFFFFFFFFFFFFFF
(310.650000) can0 171#0200000000000000
(310.660000) can0 501#00FF00FF00000300
(310.680000) can0 504#0000000000000000
(310.720000) can0 173#0D0C040000000000
(310.850000) can0 171#0200000000000000
(310.860000) can0 501#00FF00FF00000300
(310.870000) can0 504#0000000000000000
(310.910000) can0 440#4004000000000000
(310.950000) can0 173#0D0C040000000000
(311.050000) can0 171#0200000000000000
(311.060000) can0 501#00FF00FF00000300
(311.070000) can0 504#0000000000000000
(311.120000) can0 173#0D0C040000000000
(311.250000) can0 171#0200000000000000
(311.260000) can0 501#00FF00FF00000300
(311.270000) can0 504#0000000000000000
(311.320000) can0 173#0D0C040000000000
(311.450000) can0 171#0200000000000000
(311.460000) can0 501#00FF00FF00000300
(311.470000) can0 504#0000000000000000
(311.520000) can0 173#0D0C040000000000
(311.570000) can0 100#FF0000FF00000000
(311.620000) can0 570#FFFFFFFFFFFFFFFF
(311.650000) can0 171#0200000000000000
(311.670000) can0 501#00FF00FF00000300
(311.710000) can0 504#0000000000000000
(311.760000) can0 173#0D0C040000000000
(311.850000) can0 171#0200000000000000
(311.860000) can0 501#00FF00FF00000300
(311.880000) can0 504#0000000000000000
(311.920000) can0 440#4004000000000000
(311.960000) can0 173#0D0C040000000000
(312.050000) can0 171#0200000000000000
(312.060000) can0 501#00FF00FF00000300
(312.090000) can0 504#0000000000000000
(312.130000) can0 173#0D0C040000000000
(312.250000) can0 171#0200000000000000
(312.260000) can0 501#00FF00FF00000300
(312.270000) can0 504#0000000000000000
(312.310000) can0 00F#FFFFFFFFFFFF0000
(312.350000) can0 173#0D0C040000000000
(312.390000) can0 00F#FFFFFFFF09FF0000
(312.430000) can0 00F#FFFFFFFF09FF0000
(312.470000) can0 171#0200000000000000
(312.520000) can0 504#0000000000000000
(312.560000) can0 173#0D0C040000000000
(312.600000) can0 00F#FFFFFFFFFFFF0000
(312.640000) can0 570#FFFFFFFFFFFFFFFF
(312.680000) can0 00F#FFFFFFFF08FF0000
(312.720000) can0 504#0000000000000000
(312.760000) can0 173#0D0C040000000000
(312.810000) can0 00F#FFFFFFFF09FF0000
(312.850000) can0 171#0200000000000000
(312.890000) can0 501#00FF00FF00000300
(312.930000) can0 440#4004000000000000
(312.970000) can0 00F#FFFFFFFFFFFF0000
(313.010000) can0 00F#FFFFFFFF07FF0000
(313.060000) can0 00F#FFFFFFFF07FF0000
(313.100000) can0 171#0200000000000000
(313.140000) can0 504#0000000000000000
(313.180000) can0 173#0D0C040000000000
(313.220000) can0 504#0000000000000000
(313.260000) can0 171#0200000000000000
(313.310000) can0 504#0000000000000000
(313.350000) can0 00F#FFFFFFFF06FF0000
(313.390000) can0 00F#FFFFFFFF06FF0000
(313.430000) can0 00F#FFFFFFFF06FF0000
(313.470000) can0 171#0200000000000000
(313.510000) can0 504#0000000000000000
(313.550000) can0 173#0D0C040000000000
(313.600000) can0 100#FF0000FF00000000
(313.640000) can0 00F#FFFFFFFFFFFF0000
(313.680000) can0 00F#FFFFFFFF05FF0000
(313.720000) can0 00F#FFFFFFFF05FF0000
(313.760000) can0 173#0D0C040000000000
(313.800000) can0 501#00FF00FF00000300
(313.850000) can0 171#0200000000000000
(313.890000) can0 501#00FF00FF00000300
(313.930000) can0 440#4004000000000000
(313.970000) can0 00F#FFFFFFFFFFFF0000
(314.010000) can0 00F#FFFFFFFF04FF0000
(314.050000) can0 00F#FFFFFFFF04FF0000
(314.100000) can0 171#0200000000000000
(314.140000) can0 504#0000000000000000
(314.180000) can0 173#0D0C040000000000
(314.220000) can0 504#0000000000000000
(314.260000) can0 171#0200000000000000
(314.300000) can0 504#0000000000000000
(314.350000) can0 00F#FFFFFFFF03FF0000
(314.390000) can0 00F#FFFFFFFF03FF0000
(314.430000) can0 00F#FFFFFFFF03FF0000
(314.470000) can0 171#0200000000000000
(314.510000) can0 504#0000000000000000
(314.550000) can0 173#0D0C040000000000
(314.600000) can0 00F#FFFFFFFFFFFF0000
(314.640000) can0 00F#FFFFFFFF02FF0000
(314.680000) can0 570#FFFFFFFFFFFFFFFF
(314.720000) can0 504#0000000000000000
(314.760000) can0 173#0D0C040000000000
(314.800000) can0 501#00FF00FF00000300
(314.850000) can0 171#0200000000000000
(314.890000) can0 501#00FF00FF00000300
(314.930000) can0 00F#FFFFFFFFFFFF0000
(314.970000) can0 00F#FFFFFFFF01FF0000
(315.010000) can0 00F#FFFFFFFF01FF0000
(315.050000) can0 00F#FFFFFFFF01FF0000
(315.090000) can0 171#0200000000000000
(315.140000) can0 504#0000000000000000
(315.180000) can0 173#0D0C040000000000
(315.220000) can0 00F#FFFFFFFFFFFF0000
(315.260000) can0 00F#FFFFFFFF00FF0000
(315.300000) can0 501#00FF00FF00000300
(315.340000) can0 00F#FFFFFFFF00FF0000
(315.390000) can0 173#0D0C040000000000
(315.430000) can0 504#0000000000000000
(315.470000) can0 171#0200000000000000
(315.510000) can0 504#0000000000000000
(315.550000) can0 173#0D0C040000000000
(315.590000) can0 100#FF0000FF00000000
(315.640000) can0 570#FFFFFFFFFFFFFFFF
(315.680000) can0 171#0200000000000000
(315.720000) can0 504#0000000000000000
(315.760000) can0 173#0D0C040000000000
(315.800000) can0 501#00FF00FF00000300
(315.850000) can0 171#0200000000000000
(315.880000) can0 501#00FF00FF00000300
(315.930000) can0 440#4004000000000000
(315.970000) can0 173#0D0C040000000000
(316.010000) can0 504#0000000000000000
(316.050000) can0 00F#FFFFFFFFFFFF0000
(316.090000) can0 501#00FF00FF00000300
(316.130000) can0 00F#FFFFFFFF01FF0000
(316.180000) can0 00F#FFFFFFFF01FF0000
(316.220000) can0 171#0200000000000000
(316.260000) can0 171#0200000000000000
(316.300000) can0 504#0000000000000000
(316.340000) can0 173#0D0C040000000000
(316.380000) can0 00F#FFFFFFFFFFFF0000
(316.420000) can0 00F#FFFFFFFF02FF0000
(316.470000) can0 00F#FFFFFFFF02FF0000
(316.510000) can0 501#00FF00FF00000300
(316.550000) can0 504#0000000000000000
(316.590000) can0 173#0D0C040000000000
(316.630000) can0 570#FFFFFFFFFFFFFFFF
(316.670000) can0 00F#FFFFFFFFFFFF0000
(316.720000) can0 504#0000000000000000
(316.760000) can0 00F#FFFFFFFF03FF0000
(316.800000) can0 00F#FFFFFFFF03FF0000
(316.840000) can0 501#00FF00FF00000300
(316.880000) can0 171#0200000000000000
(316.920000) can0 504#0000000000000000
(316.970000) can0 173#0D0C040000000000
(317.010000) can0 00F#FFFFFFFF04FF0000
(317.050000) can0 00F#FFFFFFFF04FF0000
(317.090000) can0 171#0200000000000000
(317.130000) can0 504#0000000000000000
(317.170000) can0 173#0D0C040000000000
(317.220000) can0 501#00FF00FF00000300
(317.260000) can0 171#0200000000000000
(317.300000) can0 504#0000000000000000
(317.340000) can0 173#0D0C040000000000
(317.380000) can0 501#00FF00FF00000300
(317.450000) can0 171#0200000000000000
(317.470000) can0 501#00FF00FF00000300
(317.510000) can0 504#0000000000000000
(317.550000) can0 173#0D0C040000000000
(317.590000) can0 100#FF0000FF00000000
(317.630000) can0 570#FFFFFFFFFFFFFFFF
(317.670000) can0 171#0200000000000000
(317.720000) can0 504#0000000000000000
(317.760000) can0 173#0D0C040000000000
(317.800000) can0 501#00FF00FF00000300
(317.840000) can0 00F#FFFFFFFFFFFF0000
(317.880000) can0 171#0200000000000000
(317.920000) can0 00F#FFFFFFFF05FF0000
(317.970000) can0 173#0D0C040000000000
(318.010000) can0 00F#FFFFFFFF05FF0000
(318.050000) can0 171#0200000000000000
(318.090000) can0 501#00FF00FF00000300
(318.130000) can0 00F#FFFFFFFFFFFF0000
(318.170000) can0 173#0D0C040000000000
(318.210000) can0 00F#FFFFFFFF06FF0000
(318.260000) can0 00F#FFFFFFFF06FF0000
(318.300000) can0 171#0200000000000000
(318.340000) can0 504#0000000000000000
(318.380000) can0 173#0D0C040000000000
(318.420000) can0 504#0000000000000000
(318.460000) can0 171#0200000000000000
(318.510000) can0 504#0000000000000000
(318.550000) can0 00F#FFFFFFFF07FF0000
(318.590000) can0 00F#FFFFFFFF07FF0000
(318.630000) can0 00F#FFFFFFFF07FF0000
(318.670000) can0 570#FFFFFFFFFFFFFFFF
(318.710000) can0 504#0000000000000000
(318.750000) can0 173#0D0C040000000000
(318.800000) can0 00F#FFFFFFFFFFFF0000
(318.840000) can0 00F#FFFFFFFF08FF0000
(318.880000) can0 00F#FFFFFFFF08FF0000
(318.920000) can0 00F#FFFFFFFF08FF0000
(318.960000) can0 173#0D0C040000000000
(319.000000) can0 501#00FF00FF00000300
(319.050000) can0 171#0200000000000000
(319.090000) can0 501#00FF00FF00000300
(319.130000) can0 00F#FFFFFFFFFFFF0000
(319.170000) can0 173#0D0C040000000000
(319.210000) can0 00F#FFFFFFFF09FF0000
(319.250000) can0 00F#FFFFFFFF09FF0000
(319.300000) can0 171#0200000000000000
(319.340000) can0 504#0000000000000000
(319.380000) can0 173#0D0C040000000000
(319.420000) can0 00F#FFFFFFFFFFFF0000
(319.460000) can0 00F#FFFFFFFF0AFF0000
(319.500000) can0 501#00FF00FF00000300
(319.550000) can0 00F#FFFFFFFF0AFF0000
(319.590000) can0 173#0D0C040000000000
(319.630000) can0 100#FF0000FF00000000
(319.670000) can0 570#FFFFFFFFFFFFFFFF
(319.710000) can0 504#0000000000000000
(319.750000) can0 173#0D0C040000000000
(319.800000) can0 00F#FFFFFFFFFFFF0000
(319.840000) can0 00F#FFFFFFFF0BFF0000
(319.880000) can0 00F#FFFFFFFF0BFF0000
(319.920000) can0 504#0000000000000000
(319.960000) can0 173#0D0C040000000000
(320.000000) can0 504#0000000000000000
(320.050000) can0 171#0200000000000000
(320.090000) can0 501#00FF00FF00000300
(320.130000) can0 00F#FFFFFFFFFFFF0000
(320.170000) can0 00F#FFFFFFFF0CFF0000
(320.210000) can0 00F#FFFFFFFF0CFF0000
(320.250000) can0 00F#FFFFFFFF0CFF0000
(320.290000) can0 171#0200000000000000
(320.330000) can0 504#0000000000000000
(320.380000) can0 173#0D0C040000000000
(320.420000) can0 504#0000000000000000
(320.460000) can0 00F#FFFFFFFFFFFF0000
(320.500000) can0 00F#FFFFFFFF0DFF0000
(320.540000) can0 00F#FFFFFFFF0DFF0000
(320.580000) can0 00F#FFFFFFFF0DFF0000
(320.630000) can0 570#FFFFFFFFFFFFFFFF
(320.670000) can0 171#0200000000000000
(320.710000) can0 504#0000000000000000
(320.750000) can0 00F#FFFFFFFFFFFF0000
(320.790000) can0 00F#FFFFFFFF0EFF0000
(320.830000) can0 00F#FFFFFFFF0EFF0000
(320.880000) can0 00F#FFFFFFFF0EFF0000
(320.920000) can0 504#0000000000000000
(320.960000) can0 173#0D0C040000000000
(321.000000) can0 171#0200000000000000
(321.050000) can0 171#0200000000000000
(321.080000) can0 501#00FF00FF00000300
(321.130000) can0 00F#FFFFFFFFFFFF0000
(321.170000) can0 173#0D0C040000000000
(321.210000) can0 00F#FFFFFFFF0FFF0000
(321.250000) can0 171#0200000000000000
(321.290000) can0 501#00FF00FF00000300
(321.330000) can0 504#0000000000000000
(321.380000) can0 173#0D0C040000000000
(321.420000) can0 00F#FFFFFFFFFFFF0000
(321.460000) can0 00F#FFFFFFFF10FF0000
(321.500000) can0 501#00FF00FF00000300
(321.540000) can0 504#0000000000000000
(321.580000) can0 173#0D0C040000000000
(321.630000) can0 100#FF0000FF00000000
(321.670000) can0 570#FFFFFFFFFFFFFFFF
(321.710000) can0 00F#FFFFFFFFFFFF0000
(321.750000) can0 00F#FFFFFFFF11FF0000
(321.790000) can0 00F#FFFFFFFF11FF0000
(321.830000) can0 00F#FFFFFFFF11FF0000
(321.870000) can0 171#0200000000000000
(321.920000) can0 504#0000000000000000
(321.960000) can0 173#0D0C040000000000
(322.000000) can0 00F#FFFFFFFFFFFF0000
(322.040000) can0 00F#FFFFFFFF12FF0000
(322.080000) can0 00F#FFFFFFFF12FF0000
(322.120000) can0 504#0000000000000000
(322.170000) can0 173#0D0C040000000000
(322.210000) can0 504#0000000000000000
(322.250000) can0 171#0200000000000000
(322.290000) can0 501#00FF00FF00000300
(322.330000) can0 173#0D0C040000000000
(322.370000) can0 00F#FFFFFFFFFFFF0000
(322.420000) can0 00F#FFFFFFFF13FF0000
(322.460000) can0 00F#FFFFFFFF13FF0000
(322.500000) can0 501#00FF00FF00000300
(322.540000) can0 504#0000000000000000
(322.580000) can0 173#0D0C040000000000
(322.620000) can0 570#FFFFFFFFFFFFFFFF
(322.670000) can0 171#0200000000000000
(322.710000) can0 504#0000000000000000
(322.750000) can0 173#0D0C040000000000
(322.790000) can0 00F#FFFFFFFFFFFF0000
(322.830000) can0 00F#FFFFFFFF14FF0000
(322.870000) can0 00F#FFFFFFFF14FF0000
(322.920000) can0 504#0000000000000000
(322.960000) can0 440#4004000000000000
(323.000000) can0 173#0D0C040000000000
(323.040000) can0 504#0000000000000000
(323.080000) can0 171#0200000000000000
(323.120000) can0 504#0000000000000000
(323.170000) can0 173#0D0C040000000000
(323.210000) can0 501#00FF00FF00000300
(323.250000) can0 171#0200000000000000
(323.290000) can0 501#00FF00FF00000300
(323.330000) can0 173#0D0C040000000000
(323.370000) can0 00F#FFFFFFFFFFFF0000
(323.410000) can0 00F#FFFFFFFF13FF0000
(323.460000) can0 00F#FFFFFFFF13FF0000
(323.500000) can0 171#0200000000000000
(323.540000) can0 00F#FFFFFFFF13FF0000
(323.580000) can0 173#0D0C040000000000
(323.620000) can0 100#FF0000FF00000000
(323.660000) can0 570#FFFFFFFFFFFFFFFF
(323.700000) can0 501#00FF00FF00000300
(323.750000) can0 00F#FFFFFFFF12FF0000
(323.790000) can0 00F#FFFFFFFF12FF0000
(323.830000) can0 00F#FFFFFFFF12FF0000
(323.870000) can0 171#0200000000000000
(323.910000) can0 504#0000000000000000
(323.950000) can0 00F#FFFFFFFFFFFF0000
(324.000000) can0 00F#FFFFFFFF11FF0000
(324.040000) can0 00F#FFFFFFFF11FF0000
(324.080000) can0 00F#FFFFFFFF11FF0000
(324.120000) can0 504#0000000000000000
(324.160000) can0 173#0D0C040000000000
(324.200000) can0 504#0000000000000000
(324.250000) can0 00F#FFFFFFFFFFFF0000
(324.290000) can0 171#0200000000000000
(324.330000) can0 00F#FFFFFFFF10FF0000
(324.370000) can0 00F#FFFFFFFF10FF0000
(324.410000) can0 501#00FF00FF00000300
(324.450000) can0 171#0200000000000000
(324.500000) can0 501#00FF00FF00000300
(324.540000) can0 173#0D0C040000000000
(324.580000) can0 00F#FFFFFFFFFFFF0000
(324.620000) can0 00F#FFFFFFFF0FFF0000
(324.660000) can0 570#FFFFFFFFFFFFFFFF
(324.700000) can0 501#00FF00FF00000300
(324.750000) can0 504#0000000000000000
(324.790000) can0 173#0D0C040000000000
(324.830000) can0 00F#FFFFFFFFFFFF0000
(324.870000) can0 00F#FFFFFFFF0EFF0000
(324.910000) can0 504#0000000000000000
(324.950000) can0 440#4004000000000000
(325.000000) can0 173#0D0C040000000000
(325.040000) can0 504#0000000000000000
(325.080000) can0 171#0200000000000000
(325.120000) can0 00F#FFFFFFFFFFFF0000
(325.160000) can0 173#0D0C040000000000
(325.200000) can0 00F#FFFFFFFF0DFF0000
(325.240000) can0 00F#FFFFFFFF0DFF0000
(325.290000) can0 171#0200000000000000
(325.330000) can0 504#0000000000000000
(325.370000) can0 00F#FFFFFFFFFFFF0000
(325.410000) can0 00F#FFFFFFFF0CFF0000
(325.450000) can0 00F#FFFFFFFF0CFF0000
(325.490000) can0 171#0200000000000000
(325.540000) can0 504#0000000000000000
(325.580000) can0 173#0D0C040000000000
(325.620000) can0 100#FF0000FF00000000
(325.660000) can0 570#FFFFFFFFFFFFFFFF
(325.700000) can0 501#00FF00FF00000300
(325.740000) can0 00F#FFFFFFFF0BFF0000
(325.790000) can0 00F#FFFFFFFF0BFF0000
(325.830000) can0 00F#FFFFFFFF0BFF0000
(325.870000) can0 171#0200000000000000
(325.910000) can0 504#0000000000000000
(325.950000) can0 440#4004000000000000
(325.990000) can0 173#0D0C040000000000
(326.040000) can0 501#00FF00FF00000300
(326.080000) can0 171#0200000000000000
(326.120000) can0 00F#FFFFFFFFFFFF0000
(326.160000) can0 173#0D0C040000000000
(326.200000) can0 00F#FFFFFFFF0AFF0000
(326.240000) can0 00F#FFFFFFFF0AFF0000
(326.290000) can0 171#0200000000000000
(326.330000) can0 504#0000000000000000
(326.370000) can0 173#0D0C040000000000
(326.410000) can0 501#00FF00FF00000300
(326.450000) can0 171#0200000000000000
(326.490000) can0 501#00FF00FF00000300
(326.530000) can0 173#0D0C040000000000
(326.580000) can0 504#0000000000000000
(326.620000) can0 570#FFFFFFFFFFFFFFFF
(326.660000) can0 171#0200000000000000
(326.700000) can0 504#0000000000000000
(326.740000) can0 173#0D0C040000000000
(326.780000) can0 501#00FF00FF00000300
(326.840000) can0 171#0200000000000000
(326.870000) can0 501#00FF00FF00000300
(326.910000) can0 440#4004000000000000
(326.950000) can0 173#0D0C040000000000
(326.990000) can0 504#0000000000000000
(327.050000) can0 171#0200000000000000
(327.070000) can0 501#00FF00FF00000300
(327.120000) can0 173#0D0C040000000000
(327.160000) can0 504#0000000000000000
(327.240000) can0 171#0200000000000000
(327.260000) can0 501#00FF00FF00000300
(327.280000) can0 504#0000000000000000
(327.320000) can0 173#0D0C040000000000
(327.450000) can0 171#0200000000000000
(327.450000) can0 501#00FF00FF00000300
(327.460000) can0 504#0000000000000000
(327.520000) can0 173#0D0C040000000000
(327.560000) can0 100#FF0000FF00000000
(327.620000) can0 570#FFFFFFFFFFFFFFFF
(327.650000) can0 171#0200000000000000
(327.670000) can0 501#00FF00FF00000300
(327.710000) can0 504#0000000000000000
(327.750000) can0 173#0D0C040000000000
(327.840000) can0 171#0200000000000000
(327.860000) can0 501#00FF00FF00000300
(327.880000) can0 504#0000000000000000
(327.920000) can0 440#4004000000000000
(327.960000) can0 173#0D0C040000000000
(328.050000) can0 171#0200000000000000
(328.050000) can0 501#00FF00FF00000300
(328.090000) can0 504#0000000000000000
(328.130000) can0 173#0D0C040000000000
(328.240000) can0 171#0200000000000000
(328.260000) can0 501#00FF00FF00000300
(328.260000) can0 504#0000000000000000
(328.320000) can0 173#0D0C040000000000
(328.450000) can0 171#0200000000000000
(328.450000) can0 501#00FF00FF00000300
(328.470000) can0 504#0000000000000000
(328.520000) can0 173#0D0C040000000000
(328.610000) can0 570#FFFFFFFFFFFFFFFF
(328.640000) can0 171#0200000000000000
(328.660000) can0 501#00FF00FF00000300
(328.670000) can0 504#0000000000000000
(328.720000) can0 173#0D0C040000000000
