(4.030000) can0 440#4001000000000000
(4.130000) can0 440#4002000000000000
(4.140000) can0 100#FF0000FF00000000
(4.200000) can0 570#FFFFFFFFFFFFFFFF
(4.230000) can0 171#0200000000000000
(4.240000) can0 501#00FF00FF00000300
(4.260000) can0 504#0000000000000000
(4.300000) can0 173#FFFF1F0000000000
(4.400000) can0 440#4001000000000000
(4.430000) can0 171#0200000000000000
(4.440000) can0 501#00FF00FF00000300
(4.460000) can0 504#0000000000000000
(4.500000) can0 440#4002000000000000
(4.540000) can0 173#FFFF1F0000000000
(4.630000) can0 171#0200000000000000
(4.640000) can0 501#00FF00FF00000300
(4.650000) can0 504#0000000000000000
(4.700000) can0 173#FFFF1F0000000000
(4.760000) can0 440#4001000000000000
(4.830000) can0 171#0200000000000000
(4.840000) can0 501#00FF00FF00000300
(4.850000) can0 504#0000000000000000
(4.890000) can0 009#FDFF133303000000
(4.930000) can0 009#FDFF133303000000
(4.970000) can0 00A#FF0F030000000000
(5.010000) can0 00A#FF0F010000000000
(5.050000) can0 00A#FF0F010000000000
(5.090000) can0 501#00FF00FF00000300
(5.130000) can0 504#0000000000000000
(5.170000) can0 440#4001000000000000
(5.210000) can0 00F#04FFFFFFFFFF0000
(5.250000) can0 00F#FFFFFFFFFFFF0000
(5.290000) can0 501#00FF00FF00000300
(5.320000) can0 00F#FFFF0AFFFFFF0000
(5.360000) can0 00F#FFFFFFFFFFFF0000
(5.410000) can0 00F#FFFFFFFFFFFF0000
(5.440000) can0 00F#FFFFFFFF0AFF0000
(5.480000) can0 501#00FF00FF00000300
(5.520000) can0 440#4001000000000000
(5.560000) can0 173#FFFF1F0000000000
(5.600000) can0 009#FF07333303000000
(5.640000) can0 171#0200000000000000
(5.680000) can0 501#00FF00FF00000300
(5.720000) can0 504#0000000000000000
(5.760000) can0 173#FFFF1F0000000000
(5.800000) can0 440#4002000000000000
(5.840000) can0 171#0200000000000000
(5.880000) can0 501#00FF00FF00000300
(5.920000) can0 173#FFFF1F0000000000
(5.960000) can0 504#0000000000000000
(6.030000) can0 171#0200000000000000
(6.040000) can0 501#00FF00FF00000300
(6.080000) can0 504#0000000000000000
(6.120000) can0 173#FFFF1F0000000000
(6.160000) can0 100#FF0000FF00000000
(6.200000) can0 570#FFFFFFFFFFFFFFFF
(6.240000) can0 171#0200000000000000
(6.280000) can0 501#00FF00FF00000300
(6.310000) can0 173#FFFF1F0000000000
(6.350000) can0 504#0000000000000000
(6.430000) can0 171#0200000000000000
(6.440000) can0 501#00FF00FF00000300
(6.470000) can0 504#0000000000000000
(6.510000) can0 440#4004000000000000
(6.550000) can0 173#FFFF1F0000000000
(6.630000) can0 171#0200000000000000
(6.640000) can0 501#00FF00FF00000300
(6.670000) can0 504#0000000000000000
(6.710000) can0 173#FFFF1F0000000000
(6.830000) can0 171#0200000000000000
(6.840000) can0 501#00FF00FF00000300
(6.850000) can0 504#0000000000000000
(6.900000) can0 173#FFFF1F0000000000
(7.030000) can0 171#0200000000000000
(7.040000) can0 501#00FF00FF00000300
(7.050000) can0 504#0000000000000000
(7.080000) can0 009#FFFF333303000000
(7.120000) can0 173#FFFF1F0000000000
(7.160000) can0 009#FF07333303000000
(7.200000) can0 009#FF07333303000000
(7.240000) can0 570#FFFFFFFFFFFFFFFF
(7.280000) can0 501#00FF00FF00000300
(7.320000) can0 00F#040A0A0A0A0A0000
(7.360000) can0 009#FCFF033303000000
(7.400000) can0 009#FCFF033303000000
(7.440000) can0 009#FCFF033303000000
(7.480000) can0 171#0200000000000000
(7.520000) can0 504#0000000000000000
(7.560000) can0 173#FFFF1F0000000000
(7.600000) can0 009#FF07333303000000
(7.640000) can0 171#0200000000000000
(7.680000) can0 501#00FF00FF00000300
(7.720000) can0 173#FFFF1F0000000000
(7.760000) can0 504#0000000000000000
(7.830000) can0 171#0200000000000000
(7.840000) can0 501#00FF00FF00000300
(7.870000) can0 504#0000000000000000
(7.910000) can0 173#FFFF1F0000000000
(8.030000) can0 171#0200000000000000
(8.040000) can0 501#00FF00FF00000300
(8.050000) can0 504#0000000000000000
(8.100000) can0 173#FFFF1F0000000000
(8.150000) can0 100#FF0000FF00000000
(8.190000) can0 009#FFFF133303000000
(8.200000) can0 570#FFFFFFFFFFFFFFFF
(8.240000) can0 171#0200000000000000
(8.280000) can0 501#00FF00FF00000300
(8.320000) can0 009#FFFF133303000000
(8.360000) can0 173#FFFF1F0000000000
(8.400000) can0 009#FFD0333303000000
(8.440000) can0 009#FFD0333303000000
(8.480000) can0 009#FFD0333303000000
(8.520000) can0 00F#FFFFFFFFFFFF0000
(8.560000) can0 00F#000A0A0A0A0A0000
(8.600000) can0 00F#000A0A0A0A0A0000
(8.640000) can0 00F#000A0A0A0A0A0000
(8.680000) can0 009#FCFF033303000000
(8.720000) can0 009#FCFF033303000000
(8.760000) can0 173#FFFF1F0000000000
(8.790000) can0 009#FFFF133303000000
(8.830000) can0 171#0200000000000000
(8.870000) can0 501#00FF00FF00000300
(8.910000) can0 173#FFFF1F0000000000
(8.950000) can0 504#0000000000000000
(9.030000) can0 171#0200000000000000
(9.040000) can0 501#00FF00FF00000300
(9.070000) can0 504#0000000000000000
(9.110000) can0 173#FFFF1F0000000000
(9.200000) can0 570#FFFFFFFFFFFFFFFF
(9.230000) can0 171#0200000000000000
(9.240000) can0 501#00FF00FF00000300
(9.270000) can0 504#0000000000000000
(9.310000) can0 173#FFFF1F0000000000
(9.430000) can0 171#0200000000000000
(9.440000) can0 501#00FF00FF00000300
(9.450000) can0 504#0000000000000000
(9.480000) can0 440#4004000000000000
(9.520000) can0 173#FFFF1F0000000000
(9.630000) can0 171#0200000000000000
(9.640000) can0 501#00FF00FF00000300
(9.650000) can0 504#0000000000000000
(9.700000) can0 173#FFFF1F0000000000
(9.830000) can0 171#0200000000000000
(9.840000) can0 501#00FF00FF00000300
(9.850000) can0 504#0000000000000000
(9.900000) can0 173#FFFF1F0000000000
(10.030000) can0 171#0200000000000000
(10.040000) can0 501#00FF00FF00000300
(10.050000) can0 504#0000000000000000
(10.100000) can0 173#FFFF1F0000000000
(10.150000) can0 100#FF0000FF00000000
(10.200000) can0 570#FFFFFFFFFFFFFFFF
(10.230000) can0 171#0200000000000000
(10.250000) can0 501#00FF00FF00000300
(10.290000) can0 504#0000000000000000
(10.330000) can0 173#FFFF1F0000000000
(10.430000) can0 171#0200000000000000
(10.440000) can0 501#00FF00FF00000300
(10.450000) can0 504#0000000000000000
(10.490000) can0 440#4004000000000000
(10.530000) can0 173#FFFF1F0000000000
(10.630000) can0 171#0200000000000000
(10.640000) can0 501#00FF00FF00000300
(10.650000) can0 504#0000000000000000
(10.700000) can0 173#FFFF1F0000000000
(10.830000) can0 171#0200000000000000
(10.840000) can0 501#00FF00FF00000300
(10.850000) can0 504#0000000000000000
(10.900000) can0 173#FFFF1F0000000000
(11.030000) can0 171#0200000000000000
(11.040000) can0 501#00FF00FF00000300
(11.050000) can0 504#0000000000000000
(11.100000) can0 173#FFFF1F0000000000
(11.200000) can0 570#FFFFFFFFFFFFFFFF
(11.230000) can0 171#0200000000000000
(11.240000) can0 501#00FF00FF00000300
(11.250000) can0 504#0000000000000000
(11.300000) can0 173#FFFF1F0000000000
(11.430000) can0 171#0200000000000000
(11.440000) can0 501#00FF00FF00000300
(11.450000) can0 504#0000000000000000
(11.480000) can0 440#4004000000000000
(11.520000) can0 173#FFFF1F0000000000
(11.630000) can0 171#0200000000000000
(11.640000) can0 501#00FF00FF00000300
(11.650000) can0 504#0000000000000000
(11.700000) can0 173#FFFF1F0000000000
(11.830000) can0 171#0200000000000000
(11.840000) can0 501#00FF00FF00000300
(11.850000) can0 504#0000000000000000
(11.900000) can0 173#FFFF1F0000000000
(12.030000) can0 171#0200000000000000
(12.040000) can0 501#00FF00FF00000300
(12.050000) can0 504#0000000000000000
(12.100000) can0 173#FFFF1F0000000000
(12.150000) can0 100#FF0000FF00000000
(12.200000) can0 570#FFFFFFFFFFFFFFFF
(12.230000) can0 171#0200000000000000
(12.250000) can0 501#00FF00FF00000300
(12.280000) can0 504#0000000000000000
(12.330000) can0 173#FFFF1F0000000000
(12.430000) can0 171#0200000000000000
(12.440000) can0 501#00FF00FF00000300
(12.450000) can0 504#0000000000000000
(12.490000) can0 440#4004000000000000
(12.530000) can0 173#FFFF1F0000000000
(12.630000) can0 171#0200000000000000
(12.640000) can0 501#00FF00FF00000300
(12.650000) can0 504#0000000000000000
(12.700000) can0 173#FFFF1F0000000000
(12.830000) can0 171#0200000000000000
(12.840000) can0 501#00FF00FF00000300
(12.850000) can0 504#0000000000000000
(12.900000) can0 173#FFFF1F0000000000
(13.030000) can0 171#0200000000000000
(13.040000) can0 501#00FF00FF00000300
(13.050000) can0 504#0000000000000000
(13.100000) can0 173#FFFF1F0000000000
(13.200000) can0 570#FFFFFFFFFFFFFFFF
(13.230000) can0 171#0200000000000000
(13.240000) can0 501#00FF00FF00000300
(13.250000) can0 504#0000000000000000
(13.300000) can0 173#FFFF1F0000000000
(13.430000) can0 171#0200000000000000
(13.440000) can0 501#00FF00FF00000300
(13.450000) can0 504#0000000000000000
(13.480000) can0 440#4004000000000000
(13.520000) can0 173#FFFF1F0000000000
(13.630000) can0 171#0200000000000000
(13.640000) can0 501#00FF00FF00000300
(13.650000) can0 504#0000000000000000
(13.700000) can0 173#FFFF1F0000000000
(13.830000) can0 171#0200000000000000
(13.840000) can0 501#00FF00FF00000300
(13.850000) can0 504#0000000000000000
(13.900000) can0 173#FFFF1F0000000000
(14.030000) can0 171#0200000000000000
(14.040000) can0 501#00FF00FF00000300
(14.050000) can0 504#0000000000000000
(14.100000) can0 173#FFFF1F0000000000
(14.150000) can0 100#FF0000FF00000000
(14.200000) can0 570#FFFFFFFFFFFFFFFF
(14.230000) can0 171#0200000000000000
(14.240000) can0 501#00FF00FF00000300
(14.280000) can0 504#0000000000000000
(14.320000) can0 173#FFFF1F0000000000
(14.430000) can0 171#0200000000000000
(14.440000) can0 501#00FF00FF00000300
(14.450000) can0 504#0000000000000000
(14.490000) can0 440#4004000000000000
(14.530000) can0 173#FFFF1F0000000000
(14.630000) can0 171#0200000000000000
(14.640000) can0 501#00FF00FF00000300
(14.650000) can0 504#0000000000000000
(14.700000) can0 173#FFFF1F0000000000
(14.830000) can0 171#0200000000000000
(14.840000) can0 501#00FF00FF00000300
(14.850000) can0 504#0000000000000000
(14.900000) can0 173#FFFF1F0000000000
(15.030000) can0 171#0200000000000000
(15.040000) can0 501#00FF00FF00000300
(15.050000) can0 504#0000000000000000
(15.100000) can0 173#FFFF1F0000000000
(15.200000) can0 570#FFFFFFFFFFFFFFFF
(15.230000) can0 171#0200000000000000
(15.240000) can0 501#00FF00FF00000300
(15.250000) can0 504#0000000000000000
(15.300000) can0 173#FFFF1F0000000000
(15.430000) can0 171#0200000000000000
(15.440000) can0 501#00FF00FF00000300
(15.450000) can0 504#0000000000000000
(15.480000) can0 440#4004000000000000
(15.520000) can0 173#FFFF1F0000000000
(15.630000) can0 171#0200000000000000
(15.640000) can0 501#00FF00FF00000300
(15.650000) can0 504#0000000000000000
(15.690000) can0 173#FFFF1F0000000000
(15.820000) can0 171#0200000000000000
(15.840000) can0 501#00FF00FF00000300
(15.850000) can0 504#0000000000000000
(15.900000) can0 173#FFFF1F0000000000
(16.020000) can0 171#0200000000000000
(16.030000) can0 501#00FF00FF00000300
(16.050000) can0 504#0000000000000000
(16.090000) can0 173#FFFF1F0000000000
(16.140000) can0 100#FF0000FF00000000
(16.170000) can0 009#FFFF133303000000
(16.200000) can0 570#FFFFFFFFFFFFFFFF
(16.240000) can0 009#FFFF133303000000
(16.280000) can0 501#00FF00FF00000300
(16.320000) can0 009#FFFF133303000000
(16.360000) can0 173#FFFF1F0000000000
(16.400000) can0 171#0200000000000000
(16.440000) can0 171#0200000000000000
(16.490000) can0 504#0000000000000000
(16.530000) can0 440#4004000000000000
(16.570000) can0 173#FFFF1F0000000000
(16.610000) can0 501#00FF00FF00000300
(16.650000) can0 171#0200000000000000
(16.690000) can0 504#0000000000000000
(16.730000) can0 173#FFFF1F0000000000
(16.770000) can0 501#00FF00FF00000300
(16.820000) can0 171#0200000000000000
(16.850000) can0 501#00FF00FF00000300
(16.890000) can0 504#0000000000000000
(16.930000) can0 173#FFFF1F0000000000
(17.020000) can0 171#0200000000000000
(17.030000) can0 501#00FF00FF00000300
(17.050000) can0 504#0000000000000000
(17.090000) can0 173#FFFF1F0000000000
(17.190000) can0 570#FFFFFFFFFFFFFFFF
(17.220000) can0 171#0200000000000000
(17.230000) can0 501#00FF00FF00000300
(17.260000) can0 504#0000000000000000
(17.300000) can0 173#FFFF1F0000000000
(17.420000) can0 171#0200000000000000
(17.430000) can0 501#00FF00FF00000300
(17.440000) can0 504#0000000000000000
(17.480000) can0 440#4004000000000000
(17.520000) can0 173#FFFF1F0000000000
(17.620000) can0 171#0200000000000000
(17.630000) can0 501#00FF00FF00000300
(17.640000) can0 504#0000000000000000
(17.690000) can0 173#FFFF1F0000000000
(17.820000) can0 171#0200000000000000
(17.830000) can0 501#00FF00FF00000300
(17.840000) can0 504#0000000000000000
(17.890000) can0 173#FFFF1F0000000000
(18.020000) can0 171#0200000000000000
(18.030000) can0 501#00FF00FF00000300
(18.040000) can0 504#0000000000000000
(18.090000) can0 173#FFFF1F0000000000
(18.140000) can0 100#FF0000FF00000000
(18.190000) can0 570#FFFFFFFFFFFFFFFF
(18.220000) can0 171#0200000000000000
(18.240000) can0 501#00FF00FF00000300
(18.280000) can0 504#0000000000000000
(18.320000) can0 173#FFFF1F0000000000
(18.420000) can0 171#0200000000000000
(18.430000) can0 501#00FF00FF00000300
(18.440000) can0 504#0000000000000000
(18.480000) can0 440#4004000000000000
(18.520000) can0 173#FFFF1F0000000000
(18.620000) can0 171#0200000000000000
(18.630000) can0 501#00FF00FF00000300
(18.650000) can0 504#0000000000000000
(18.690000) can0 173#FFFF1F0000000000
(18.820000) can0 171#0200000000000000
(18.830000) can0 501#00FF00FF00000300
(18.840000) can0 504#0000000000000000
(18.890000) can0 173#FFFF1F0000000000
(19.020000) can0 171#0200000000000000
(19.030000) can0 501#00FF00FF00000300
(19.040000) can0 504#0000000000000000
(19.090000) can0 173#FFFF1F0000000000
(19.190000) can0 570#FFFFFFFFFFFFFFFF
(19.220000) can0 171#0200000000000000
(19.230000) can0 501#00FF00FF00000300
(19.250000) can0 504#0000000000000000
(19.290000) can0 173#FFFF1F0000000000
(19.360000) can0 173#0C0C040000000000
(19.400000) can0 173#0C0C040000000000
(19.420000) can0 171#0200000000000000
(19.450000) can0 501#00FF00FF00000300
(19.490000) can0 504#0000000000000000
(19.530000) can0 173#0C0C040000000000
(19.570000) can0 173#0C0C040000000000
(19.610000) can0 173#0C0C040000000000
(19.650000) can0 171#0200000000000000
(19.690000) can0 504#0000000000000000
(19.730000) can0 173#0C0C040000000000
(19.780000) can0 173#0C0C040000000000
(19.820000) can0 171#0200000000000000
(19.860000) can0 501#00FF00FF00000300
(19.900000) can0 173#0C0C040000000000
(19.940000) can0 504#0000000000000000
(20.020000) can0 171#0200000000000000
(20.030000) can0 501#00FF00FF00000300
(20.060000) can0 504#0000000000000000
(20.100000) can0 173#0C0C040000000000
(20.140000) can0 100#FF0000FF00000000
(20.190000) can0 570#FFFFFFFFFFFFFFFF
(20.220000) can0 171#0200000000000000
(20.260000) can0 501#00FF00FF00000300
(20.300000) can0 173#0C0C040000000000
(20.340000) can0 504#0000000000000000
(20.420000) can0 171#0200000000000000
(20.430000) can0 501#00FF00FF00000300
(20.460000) can0 504#0000000000000000
(20.510000) can0 440#4004000000000000
(20.550000) can0 173#0C0C040000000000
(20.620000) can0 171#0200000000000000
(20.630000) can0 501#00FF00FF00000300
(20.670000) can0 504#0000000000000000
(20.710000) can0 173#0C0C040000000000
(20.820000) can0 171#0200000000000000
(20.830000) can0 501#00FF00FF00000300
(20.840000) can0 504#0000000000000000
(20.890000) can0 173#0C0C040000000000
(21.020000) can0 171#0200000000000000
(21.030000) can0 501#00FF00FF00000300
(21.040000) can0 504#0000000000000000
(21.090000) can0 173#0C0C040000000000
(21.190000) can0 570#FFFFFFFFFFFFFFFF
(21.220000) can0 171#0200000000000000
(21.230000) can0 501#00FF00FF00000300
(21.250000) can0 504#0000000000000000
(21.290000) can0 173#0C0C040000000000
(21.420000) can0 171#0200000000000000
(21.430000) can0 501#00FF00FF00000300
(21.440000) can0 504#0000000000000000
(21.480000) can0 440#4004000000000000
(21.520000) can0 173#0C0C040000000000
(21.620000) can0 171#0200000000000000
(21.630000) can0 501#00FF00FF00000300
(21.640000) can0 504#0000000000000000
(21.690000) can0 173#0C0C040000000000
(21.820000) can0 171#0200000000000000
(21.830000) can0 501#00FF00FF00000300
(21.840000) can0 504#0000000000000000
(21.890000) can0 173#0C0C040000000000
(22.020000) can0 171#0200000000000000
(22.030000) can0 501#00FF00FF00000300
(22.040000) can0 504#0000000000000000
(22.090000) can0 173#0C0C040000000000
(22.140000) can0 100#FF0000FF00000000
(22.190000) can0 570#FFFFFFFFFFFFFFFF
(22.220000) can0 171#0200000000000000
(22.240000) can0 501#00FF00FF00000300
(22.280000) can0 504#0000000000000000
(22.320000) can0 173#0C0C040000000000
(22.420000) can0 171#0200000000000000
(22.430000) can0 501#00FF00FF00000300
(22.440000) can0 504#0000000000000000
(22.480000) can0 440#4004000000000000
(22.520000) can0 173#0C0C040000000000
(22.620000) can0 171#0200000000000000
(22.630000) can0 501#00FF00FF00000300
(22.640000) can0 504#0000000000000000
(22.690000) can0 173#0C0C040000000000
(22.820000) can0 171#0200000000000000
(22.830000) can0 501#00FF00FF00000300
(22.840000) can0 504#0000000000000000
(22.890000) can0 173#0C0C040000000000
(23.020000) can0 171#0200000000000000
(23.030000) can0 501#00FF00FF00000300
(23.040000) can0 504#0000000000000000
(23.090000) can0 173#0C0C040000000000
(23.160000) can0 009#FF07333303000000
(23.180000) can0 00F#FFFFFFFFFFFF0000
(23.200000) can0 570#FFFFFFFFFFFFFFFF
(23.240000) can0 009#FF07333303000000
(23.280000) can0 501#00FF00FF00000300
(23.320000) can0 008#3F0F000000000000
(23.360000) can0 00F#FFFFFFFFFFFF0000
(23.400000) can0 00F#FFFFFFFFFFFF0000
(23.440000) can0 00F#FFFFFFFFFF0A0000
(23.480000) can0 504#0000000000000000
(23.520000) can0 440#4004000000000000
(23.560000) can0 00F#FFFF0AFFFFFF0000
(23.600000) can0 009#FCFF033303000000
(23.640000) can0 009#FCFF033303000000
(23.680000) can0 504#0000000000000000
(23.720000) can0 173#0C0C040000000000
(23.770000) can0 00F#040A0A0A0A0A0000
(23.820000) can0 171#0200000000000000
(23.850000) can0 501#00FF00FF00000300
(23.890000) can0 504#0000000000000000
(23.930000) can0 173#0C0C040000000000
(24.020000) can0 171#0200000000000000
(24.030000) can0 501#00FF00FF00000300
(24.050000) can0 504#0000000000000000
(24.090000) can0 173#0C0C040000000000
(24.140000) can0 100#FF0000FF00000000
(24.190000) can0 570#FFFFFFFFFFFFFFFF
(24.220000) can0 171#0200000000000000
(24.250000) can0 501#00FF00FF00000300
(24.290000) can0 173#0C0C040000000000
(24.330000) can0 504#0000000000000000
(24.420000) can0 171#0200000000000000
(24.430000) can0 501#00FF00FF00000300
(24.450000) can0 504#0000000000000000
(24.500000) can0 440#4004000000000000
(24.540000) can0 173#0C0C040000000000
(24.620000) can0 171#0200000000000000
(24.630000) can0 501#00FF00FF00000300
(24.660000) can0 504#0000000000000000
(24.700000) can0 173#0C0C040000000000
(24.820000) can0 171#0200000000000000
(24.830000) can0 501#00FF00FF00000300
(24.840000) can0 504#0000000000000000
(24.890000) can0 173#0C0C040000000000
(25.020000) can0 171#0200000000000000
(25.030000) can0 501#00FF00FF00000300
(25.040000) can0 504#0000000000000000
(25.090000) can0 173#0C0C040000000000
(25.190000) can0 570#FFFFFFFFFFFFFFFF
(25.220000) can0 171#0200000000000000
(25.230000) can0 501#00FF00FF00000300
(25.240000) can0 504#0000000000000000
(25.290000) can0 173#0C0C040000000000
(25.420000) can0 171#0200000000000000
(25.430000) can0 501#00FF00FF00000300
(25.440000) can0 504#0000000000000000
(25.470000) can0 440#4004000000000000
(25.510000) can0 173#0C0C040000000000
(25.620000) can0 171#0200000000000000
(25.630000) can0 501#00FF00FF00000300
(25.640000) can0 504#0000000000000000
(25.690000) can0 173#0C0C040000000000
(25.820000) can0 171#0200000000000000
(25.830000) can0 501#00FF00FF00000300
(25.840000) can0 504#0000000000000000
(25.890000) can0 173#0C0C040000000000
(26.020000) can0 171#0200000000000000
(26.030000) can0 501#00FF00FF00000300
(26.040000) can0 504#0000000000000000
(26.090000) can0 173#0C0C040000000000
(26.140000) can0 100#FF0000FF00000000
(26.190000) can0 570#FFFFFFFFFFFFFFFF
(26.220000) can0 171#0200000000000000
(26.240000) can0 501#00FF00FF00000300
(26.280000) can0 504#0000000000000000
(26.320000) can0 173#0C0C040000000000
(26.420000) can0 171#0200000000000000
(26.430000) can0 501#00FF00FF00000300
(26.440000) can0 504#0000000000000000
(26.480000) can0 440#4004000000000000
(26.520000) can0 173#0C0C040000000000
(26.620000) can0 171#0200000000000000
(26.630000) can0 501#00FF00FF00000300
(26.640000) can0 504#0000000000000000
(26.690000) can0 173#0C0C040000000000
(26.820000) can0 171#0200000000000000
(26.830000) can0 501#00FF00FF00000300
(26.840000) can0 504#0000000000000000
(26.890000) can0 173#0C0C040000000000
(27.020000) can0 171#0200000000000000
(27.030000) can0 501#00FF00FF00000300
(27.040000) can0 504#0000000000000000
(27.090000) can0 173#0C0C040000000000
(27.190000) can0 570#FFFFFFFFFFFFFFFF
(27.220000) can0 171#0200000000000000
(27.230000) can0 501#00FF00FF00000300
(27.240000) can0 504#0000000000000000
(27.290000) can0 173#0C0C040000000000
(27.420000) can0 171#0200000000000000
(27.430000) can0 501#00FF00FF00000300
(27.440000) can0 504#0000000000000000
(27.470000) can0 440#4004000000000000
(27.510000) can0 173#0C0C040000000000
(27.620000) can0 171#0200000000000000
(27.630000) can0 501#00FF00FF00000300
(27.640000) can0 504#0000000000000000
(27.690000) can0 173#0C0C040000000000
(27.820000) can0 171#0200000000000000
(27.830000) can0 501#00FF00FF00000300
(27.840000) can0 504#0000000000000000
(27.890000) can0 173#0C0C040000000000
(28.020000) can0 171#0200000000000000
(28.030000) can0 501#00FF00FF00000300
(28.040000) can0 504#0000000000000000
(28.090000) can0 173#0C0C040000000000
(28.140000) can0 100#FF0000FF00000000
(28.190000) can0 570#FFFFFFFFFFFFFFFF
(28.220000) can0 171#0200000000000000
(28.230000) can0 501#00FF00FF00000300
(28.270000) can0 504#0000000000000000
(28.320000) can0 173#0C0C040000000000
(28.420000) can0 171#0200000000000000
(28.430000) can0 501#00FF00FF00000300
(28.440000) can0 504#0000000000000000
(28.480000) can0 440#4004000000000000
(28.520000) can0 173#0C0C040000000000
(28.620000) can0 171#0200000000000000
(28.630000) can0 501#00FF00FF00000300
(28.640000) can0 504#0000000000000000
(28.690000) can0 173#0C0C040000000000
(28.820000) can0 171#0200000000000000
(28.830000) can0 501#00FF00FF00000300
(28.840000) can0 504#0000000000000000
(28.890000) can0 173#0C0C040000000000
(29.020000) can0 171#0200000000000000
(29.030000) can0 501#00FF00FF00000300
(29.040000) can0 504#0000000000000000
(29.090000) can0 173#0C0C040000000000
(29.190000) can0 570#FFFFFFFFFFFFFFFF
(29.220000) can0 171#0200000000000000
(29.230000) can0 501#00FF00FF00000300
(29.240000) can0 504#0000000000000000
(29.290000) can0 173#0C0C040000000000
(29.420000) can0 171#0200000000000000
(29.430000) can0 501#00FF00FF00000300
(29.440000) can0 504#0000000000000000
(29.470000) can0 440#4004000000000000
(29.510000) can0 173#0C0C040000000000
(29.620000) can0 171#0200000000000000
(29.630000) can0 501#00FF00FF00000300
(29.640000) can0 504#0000000000000000
(29.690000) can0 173#0C0C040000000000
(29.820000) can0 171#0200000000000000
(29.830000) can0 501#00FF00FF00000300
(29.840000) can0 504#0000000000000000
(29.890000) can0 173#0C0C040000000000
(30.020000) can0 171#0200000000000000
(30.030000) can0 501#00FF00FF00000300
(30.040000) can0 504#0000000000000000
(30.090000) can0 173#0C0C040000000000
(30.140000) can0 100#FF0000FF00000000
(30.190000) can0 570#FFFFFFFFFFFFFFFF
(30.220000) can0 171#0200000000000000
(30.230000) can0 501#00FF00FF00000300
(30.270000) can0 504#0000000000000000
(30.310000) can0 173#0C0C040000000000
(30.420000) can0 171#0200000000000000
(30.430000) can0 501#00FF00FF00000300
(30.440000) can0 504#0000000000000000
(30.480000) can0 440#4004000000000000
(30.520000) can0 173#0C0C040000000000
(30.620000) can0 171#0200000000000000
(30.620000) can0 501#00FF00FF00000300
(30.640000) can0 504#0000000000000000
(30.690000) can0 173#0C0C040000000000
(30.820000) can0 171#0200000000000000
(30.830000) can0 501#00FF00FF00000300
(30.830000) can0 504#0000000000000000
(30.890000) can0 173#0C0C040000000000
(31.010000) can0 171#0200000000000000
(31.030000) can0 501#00FF00FF00000300
(31.040000) can0 504#0000000000000000
(31.080000) can0 173#0C0C040000000000
(31.180000) can0 173#FFFF1F0000000000
(31.180000) can0 570#FFFFFFFFFFFFFFFF
(31.200000) can0 173#0D0C040000000000
(31.230000) can0 171#0200000000000000
