(9.160000) can0 448#480100000000FFFF
(9.170000) can0 440#4001000000000000
(9.170000) can0 44B#4B0100000000FFFF
(9.260000) can0 448#4B0200000000FFFF
(9.280000) can0 100#FF0000FF00000000
(9.290000) can0 145#0000000000000000
(9.330000) can0 580#5AAE55D6FFFFFFFF
(9.370000) can0 570#FFFFFFFFFFFFFFFF
(9.410000) can0 501#00FF00FF00000300
(9.450000) can0 504#0000000000000000
(9.490000) can0 085#231414141414FFFF
(9.530000) can0 580#5AA65596FAFEFFFF
(9.570000) can0 085#231414141414FFFF
(9.610000) can0 501#00FF00FF00000300
(9.650000) can0 504#0000000000000000
(9.690000) can0 173#0C00040000000000
(9.730000) can0 580#5AA65596FAFEFFFF
(9.770000) can0 448#4B0200000000FFFF
(9.800000) can0 501#00FF00FF00000300
(9.840000) can0 504#0000000000000000
(9.880000) can0 173#0C00040000000000
(9.920000) can0 145#0000000000000000
(9.960000) can0 440#4802000000000000
(10.000000) can0 171#0200000000000000
(10.040000) can0 448#4B0200000000FFFF
(10.080000) can0 580#5AA65596FAFEFFFF
(10.120000) can0 145#0000000000000000
(10.170000) can0 147#0000000000000000
(10.210000) can0 570#FFFFFFFFFFFFFFFF
(10.250000) can0 504#0000000000000000
(10.290000) can0 173#FFFF1F0000000000
(10.330000) can0 541#FFFFFF0F00000000
(10.370000) can0 147#0000000000000000
(10.410000) can0 183#060A0A0A0A0A00FF
(10.450000) can0 183#060A0A0A0A0A00FF
(10.490000) can0 173#FFFF1F0000000000
(10.530000) can0 145#0000000000000000
(10.570000) can0 147#0000000000000000
(10.610000) can0 448#4B0200000000FFFF
(10.650000) can0 504#0000000000000000
(10.690000) can0 44B#400200000000FFFF
(10.730000) can0 145#0000000000000000
(10.770000) can0 009#FDFF133303000000
(10.810000) can0 009#FDFF133303000000
(10.850000) can0 00A#FF0F010000000000
(10.900000) can0 085#231414141414FFFF
(10.940000) can0 085#231414141414FFFF
(10.980000) can0 44B#400200000000FFFF
(11.020000) can0 00F#16FFFFFFFFFF0000
(11.060000) can0 00F#FFFFFFFFFFFF0000
(11.100000) can0 173#FFFF1F0000000000
(11.140000) can0 00F#FFFF0AFFFFFF0000
(11.180000) can0 00F#FFFF0AFFFFFF0000
(11.220000) can0 009#FFFF333303000000
(11.260000) can0 009#FFFF333303000000
(11.300000) can0 00F#FFFFFFFFFF0A0000
(11.340000) can0 146#0000000000000000
(11.380000) can0 00F#FFFFFFFFFF0A0000
(11.420000) can0 009#FF07333303000000
(11.460000) can0 504#0000000000000000
(11.500000) can0 173#FFFF1F0000000000
(11.540000) can0 147#0000000000000000
(11.580000) can0 181#F1FCFDCC07FFFFFF
(11.630000) can0 440#480200000000FFFF
(11.670000) can0 504#0000000000000000
(11.710000) can0 173#FFFF1F0000000000
(11.750000) can0 147#0000000000000000
(11.790000) can0 44B#400200000000FFFF
(11.830000) can0 501#00FF00FF00000300
(11.870000) can0 504#0000000000000000
(11.910000) can0 440#480200000000FFFF
(11.950000) can0 147#0000000000000000
(11.990000) can0 448#4B0200000000FFFF
(12.030000) can0 501#00FF00FF00000300
(12.070000) can0 504#0000000000000000
(12.110000) can0 580#5AA65596FAFEFFFF
(12.150000) can0 147#0000000000000000
(12.190000) can0 570#FFFFFFFFFFFFFFFF
(12.230000) can0 501#00FF00FF00000300
(12.270000) can0 448#4B0200000000FFFF
(12.310000) can0 580#5AA65596FAFEFFFF
(12.350000) can0 147#0000000000000000
(12.400000) can0 44B#400200000000FFFF
(12.440000) can0 504#0000000000000000
(12.480000) can0 440#480200000000FFFF
(12.520000) can0 580#5AA65596FAFEFFFF
(12.560000) can0 448#4B0200000000FFFF
(12.600000) can0 171#0200000000000000
(12.640000) can0 504#0000000000000000
(12.680000) can0 44B#400200000000FFFF
(12.720000) can0 145#0000000000000000
(12.760000) can0 147#0000000000000000
(12.800000) can0 171#0200000000000000
(12.840000) can0 504#0000000000000000
(12.880000) can0 173#FFFF1F0000000000
(12.920000) can0 44B#400200000000FFFF
(12.960000) can0 009#FFFF333303000000
(13.000000) can0 009#FF07333303000000
(13.040000) can0 504#0000000000000000
(13.090000) can0 173#FFFF1F0000000000
(13.130000) can0 145#0000000000000000
(13.170000) can0 009#FFFF333303000000
(13.210000) can0 44B#400200000000FFFF
(13.250000) can0 181#F0FCFCCC07FFFFFF
(13.290000) can0 173#FFFF1F0000000000
(13.330000) can0 181#F0FCFCCC07FFFFFF
(13.370000) can0 147#0000000000000000
(13.410000) can0 448#4B0200000000FFFF
(13.450000) can0 504#0000000000000000
(13.490000) can0 173#FFFF1F0000000000
(13.530000) can0 145#0000000000000000
(13.570000) can0 147#0000000000000000
(13.610000) can0 440#480200000000FFFF
(13.650000) can0 504#0000000000000000
(13.690000) can0 173#FFFF1F0000000000
(13.730000) can0 145#0000000000000000
(13.770000) can0 44B#400200000000FFFF
(13.810000) can0 171#0200000000000000
(13.850000) can0 440#480200000000FFFF
(13.900000) can0 173#FFFF1F0000000000
(13.940000) can0 145#0000000000000000
(13.980000) can0 448#4B0200000000FFFF
(14.020000) can0 171#0200000000000000
(14.060000) can0 44B#400200000000FFFF
(14.100000) can0 173#FFFF1F0000000000
(14.140000) can0 147#0000000000000000
(14.180000) can0 009#FFFF133303000000
(14.220000) can0 448#4B0200000000FFFF
(14.260000) can0 181#F0FCFDCC07FFFFFF
(14.300000) can0 580#5AA65596FAFEFFFF
(14.340000) can0 147#0000000000000000
(14.380000) can0 009#FFD0333303000000
(14.420000) can0 501#00FF00FF00000300
(14.460000) can0 00F#000A0A0A0A0A0000
(14.500000) can0 580#5AA65596FAFEFFFF
(14.550000) can0 147#0000000000000000
(14.590000) can0 009#FCFF033303000000
(14.630000) can0 501#00FF00FF00000300
(14.670000) can0 009#FCFF033303000000
(14.710000) can0 580#5AA65596FAFEFFFF
(14.750000) can0 147#0000000000000000
(14.790000) can0 448#4B0200000000FFFF
(14.830000) can0 501#00FF00FF00000300
(14.870000) can0 44B#400200000000FFFF
(14.910000) can0 580#5AA65596FAFEFFFF
(14.950000) can0 147#0000000000000000
(14.990000) can0 440#480200000000FFFF
(15.030000) can0 501#00FF00FF00000300
(15.070000) can0 448#4B0200000000FFFF
(15.110000) can0 580#5AA65596FAFEFFFF
(15.150000) can0 44B#400200000000FFFF
(15.190000) can0 570#FFFFFFFFFFFFFFFF
(15.230000) can0 504#0000000000000000
(15.280000) can0 145#070100FF00000000
(15.310000) can0 180#FCFCFCC4FFFFFFFF
(15.360000) can0 147#0000000000000000
(15.400000) can0 171#0200000000000000
(15.440000) can0 504#0000000000000000
(15.480000) can0 173#FFFF1F0000000000
(15.520000) can0 145#070100FF00000000
(15.560000) can0 147#0000000000000000
(15.600000) can0 448#4B0200000000FFFF
(15.640000) can0 504#0000000000000000
(15.680000) can0 173#FFFF1F0000000000
(15.720000) can0 145#070100FF00000000
(15.760000) can0 147#0000000000000000
(15.800000) can0 440#480200000000FFFF
(15.840000) can0 504#0000000000000000
(15.880000) can0 173#FFFF1F0000000000
(15.920000) can0 145#070100FF00000000
(15.970000) can0 147#0000000000000000
(16.010000) can0 44B#400200000000FFFF
(16.050000) can0 504#0000000000000000
(16.090000) can0 173#FFFF1F0000000000
(16.130000) can0 145#070100FF00000000
(16.170000) can0 040#FFFFFF0300000000
(16.210000) can0 040#0CFCFF0300000000
(16.250000) can0 040#0CFCFF0300000000
(16.290000) can0 173#FFFF1F0000000000
(16.330000) can0 541#FF0A0F0F00000000
(16.370000) can0 440#480200000000FFFF
(16.410000) can0 171#0200000000000000
(16.450000) can0 448#4B0200000000FFFF
(16.490000) can0 580#5AA65596FAFEFFFF
(16.530000) can0 145#070100FF00000000
(16.570000) can0 44B#400200000000FFFF
(16.610000) can0 171#0200000000000000
(16.650000) can0 440#480200000000FFFF
(16.690000) can0 580#5AA65596FAFEFFFF
(16.740000) can0 448#4B0200000000FFFF
(16.780000) can0 147#0000000000000000
(16.820000) can0 171#0200000000000000
(16.860000) can0 504#0000000000000000
(16.900000) can0 580#5AA65596FAFEFFFF
(16.940000) can0 147#0000000000000000
(16.980000) can0 448#4B0200000000FFFF
(17.020000) can0 171#0200000000000000
(17.060000) can0 504#0000000000000000
(17.100000) can0 44B#400200000000FFFF
(17.140000) can0 147#0000000000000000
(17.180000) can0 570#FFFFFFFFFFFFFFFF
(17.220000) can0 501#00FF00FF00000300
(17.260000) can0 504#0000000000000000
(17.300000) can0 180#FCFCFCC4FFFFFFFF
(17.340000) can0 147#0000000000000000
(17.380000) can0 44B#400200000000FFFF
(17.420000) can0 501#00FF00FF00000300
(17.460000) can0 040#0FFEFF0300000000
(17.510000) can0 040#0FFEFF0300000000
(17.550000) can0 147#0000000000000000
(17.590000) can0 448#4B0200000000FFFF
(17.630000) can0 501#00FF00FF00000300
(17.670000) can0 44B#400200000000FFFF
(17.710000) can0 580#5AA65596FAFEFFFF
(17.750000) can0 147#0000000000000000
(17.790000) can0 440#480200000000FFFF
(17.830000) can0 501#00FF00FF00000300
(17.870000) can0 448#4B0200000000FFFF
(17.910000) can0 145#010100FF00000000
(17.950000) can0 44B#400200000000FFFF
(17.990000) can0 145#010100FF00000000
(18.030000) can0 504#0000000000000000
(18.070000) can0 040#FFFFFF0300000000
(18.110000) can0 580#5AA65596FAFEFFFF
(18.150000) can0 147#0000000000000000
(18.190000) can0 570#FFFFFFFFFFFFFFFF
(18.240000) can0 040#FCFFFF0300000000
(18.280000) can0 040#FCFFFF0300000000
(18.320000) can0 145#010100FF00000000
(18.360000) can0 147#0000000000000000
(18.400000) can0 448#4B0200000000FFFF
(18.440000) can0 504#0000000000000000
(18.480000) can0 173#FFFF1F0000000000
(18.520000) can0 145#010100FF00000000
(18.560000) can0 147#0000000000000000
(18.600000) can0 440#480200000000FFFF
(18.640000) can0 504#0000000000000000
(18.680000) can0 580#5AA65596FAFEFFFF
(18.720000) can0 145#010100FF00000000
(18.760000) can0 147#0000000000000000
(18.800000) can0 44B#400200000000FFFF
(18.840000) can0 504#0000000000000000
(18.880000) can0 173#FFFF1F0000000000
(18.920000) can0 145#010100FF00000000
(18.970000) can0 448#4B0200000000FFFF
(19.010000) can0 040#0FFEFF0300000000
(19.050000) can0 504#0000000000000000
(19.090000) can0 173#FFFF1F0000000000
(19.130000) can0 145#010100FF00000000
(19.170000) can0 440#480200000000FFFF
(19.210000) can0 570#FFFFFFFFFFFFFFFF
(19.250000) can0 448#4B0200000000FFFF
(19.290000) can0 180#FCFCFCC4FFFFFFFF
(19.330000) can0 541#FB0A0F0F00000000
(19.370000) can0 44B#400200000000FFFF
(19.410000) can0 171#0200000000000000
(19.450000) can0 504#0000000000000000
(19.490000) can0 173#FFFF1F0000000000
(19.530000) can0 145#010100FF00000000
(19.570000) can0 147#0000000000000000
(19.610000) can0 171#0200000000000000
(19.650000) can0 504#0000000000000000
(19.700000) can0 173#FFFF1F0000000000
(19.740000) can0 147#0000000000000000
(19.780000) can0 448#4B0200000000FFFF
(19.820000) can0 171#0200000000000000
(19.860000) can0 504#0000000000000000
(19.900000) can0 44B#400200000000FFFF
(19.940000) can0 147#0000000000000000
(19.980000) can0 440#480200000000FFFF
(20.020000) can0 501#00FF00FF00000300
(20.060000) can0 040#0FFEFF0300000000
(20.100000) can0 173#FFFF1F0000000000
(20.140000) can0 147#0000000000000000
(20.180000) can0 570#FFFFFFFFFFFFFFFF
(20.220000) can0 501#00FF00FF00000300
(20.260000) can0 440#480200000000FFFF
(20.300000) can0 181#F0FCFCCCD0FFFFFF
(20.340000) can0 147#0000000000000000
(20.380000) can0 448#4B0200000000FFFF
(20.430000) can0 501#00FF00FF00000300
(20.470000) can0 44B#400200000000FFFF
(20.510000) can0 173#FFFF1F0000000000
(20.550000) can0 440#480200000000FFFF
(20.590000) can0 171#0200000000000000
(20.630000) can0 501#00FF00FF00000300
(20.670000) can0 448#4B0200000000FFFF
(20.710000) can0 173#FFFF1F0000000000
(20.750000) can0 147#0000000000000000
(20.790000) can0 171#0200000000000000
(20.830000) can0 504#0000000000000000
(20.870000) can0 580#5AA65596FAFEFFFF
(20.910000) can0 448#4B0200000000FFFF
(20.950000) can0 147#0000000000000000
(20.990000) can0 040#0FFEFF0300000000
(21.030000) can0 504#0000000000000000
(21.070000) can0 580#5AA65596FAFEFFFF
(21.110000) can0 145#010100FF00000000
(21.160000) can0 147#0000000000000000
(21.200000) can0 448#4B0200000000FFFF
(21.240000) can0 504#0000000000000000
(21.280000) can0 580#5AA65596FAFEFFFF
(21.320000) can0 541#FB0A0F0F00000000
(21.360000) can0 147#0000000000000000
(21.400000) can0 440#480200000000FFFF
(21.440000) can0 504#0000000000000000
(21.480000) can0 173#FFFF1F0000000000
(21.520000) can0 145#010100FF00000000
(21.560000) can0 147#0000000000000000
(21.600000) can0 44B#400200000000FFFF
(21.640000) can0 504#0000000000000000
(21.680000) can0 173#FFFF1F0000000000
(21.720000) can0 145#010100FF00000000
(21.760000) can0 448#4B0200000000FFFF
(21.810000) can0 171#0200000000000000
(21.850000) can0 44B#400200000000FFFF
(21.890000) can0 173#FFFF1F0000000000
(21.930000) can0 145#010100FF00000000
(21.970000) can0 440#480200000000FFFF
(22.010000) can0 040#0FFEFF0300000000
(22.050000) can0 504#0000000000000000
(22.090000) can0 173#FFFF1F0000000000
(22.130000) can0 009#FFFF133303000000
(22.170000) can0 009#FFFF133303000000
(22.210000) can0 009#FFFF133303000000
(22.250000) can0 504#0000000000000000
(22.290000) can0 181#F0FCFDCCD0FFFFFF
(22.330000) can0 541#FB0A0F0F00000000
(22.370000) can0 147#0000000000000000
(22.410000) can0 171#0200000000000000
(22.450000) can0 504#0000000000000000
(22.500000) can0 440#480200000000FFFF
(22.540000) can0 147#0000000000000000
(22.580000) can0 448#4B0200000000FFFF
(22.620000) can0 171#0200000000000000
(22.660000) can0 504#0000000000000000
(22.700000) can0 173#FFFF1F0000000000
(22.740000) can0 147#0000000000000000
(22.780000) can0 440#480200000000FFFF
(22.820000) can0 501#00FF00FF00000300
(22.860000) can0 504#0000000000000000
(22.900000) can0 173#FFFF1F0000000000
(22.940000) can0 147#0000000000000000
(22.980000) can0 040#0FFEFF0300000000
(23.020000) can0 501#00FF00FF00000300
(23.060000) can0 580#5AA65596FAFEFFFF
(23.100000) can0 173#FFFF1F0000000000
(23.140000) can0 448#4B0200000000FFFF
(23.180000) can0 570#FFFFFFFFFFFFFFFF
(23.220000) can0 501#00FF00FF00000300
(23.270000) can0 580#5AA65596FAFEFFFF
(23.310000) can0 183#000A0A0A0A0A00FF
(23.350000) can0 147#0000000000000000
(23.390000) can0 171#0200000000000000
(23.430000) can0 504#0000000000000000
(23.470000) can0 580#5AA65596FAFEFFFF
(23.510000) can0 173#0C0C040000000000
(23.550000) can0 147#0000000000000000
(23.590000) can0 440#480200000000FFFF
(23.630000) can0 504#0000000000000000
(23.670000) can0 580#5AA65596FAFEFFFF
(23.710000) can0 448#4B0200000000FFFF
(23.750000) can0 147#0000000000000000
(23.790000) can0 44B#400200000000FFFF
(23.830000) can0 504#0000000000000000
(23.870000) can0 580#5AA65596FAFEFFFF
(23.910000) can0 145#010100FF00000000
(23.950000) can0 147#0000000000000000
(24.000000) can0 448#4B0200000000FFFF
(24.040000) can0 504#0000000000000000
(24.080000) can0 44B#400200000000FFFF
(24.120000) can0 145#010100FF00000000
(24.160000) can0 147#0000000000000000
(24.200000) can0 570#FFFFFFFFFFFFFFFF
(24.240000) can0 504#0000000000000000
(24.280000) can0 173#0C0C040000000000
(24.320000) can0 541#FB0A0F0F00000000
(24.360000) can0 44B#400200000000FFFF
(24.400000) can0 171#0200000000000000
(24.440000) can0 504#0000000000000000
(24.480000) can0 173#0C0C040000000000
(24.520000) can0 145#010100FF00000000
(24.560000) can0 448#4B0200000000FFFF
(24.600000) can0 171#0200000000000000
(24.640000) can0 44B#400200000000FFFF
(24.680000) can0 173#0C0C040000000000
(24.730000) can0 145#010100FF00000000
(24.770000) can0 147#0000000000000000
(24.810000) can0 171#0200000000000000
(24.850000) can0 504#0000000000000000
(24.890000) can0 173#0C0C040000000000
(24.930000) can0 145#010100FF00000000
(24.970000) can0 147#0000000000000000
(25.010000) can0 171#0200000000000000
(25.050000) can0 504#0000000000000000
(25.090000) can0 448#4B0200000000FFFF
(25.130000) can0 145#010100FF00000000
(25.170000) can0 147#0000000000000000
(25.210000) can0 171#0200000000000000
(25.250000) can0 580#5AA65596FAFEFFFF
(25.290000) can0 183#000A0A0A0A0A00FF
(25.330000) can0 147#0000000000000000
(25.370000) can0 448#4B0200000000FFFF
(25.420000) can0 171#0200000000000000
(25.460000) can0 580#5AA65596FAFEFFFF
(25.500000) can0 173#0C0C040000000000
(25.540000) can0 147#0000000000000000
(25.580000) can0 440#480200000000FFFF
(25.620000) can0 501#00FF00FF00000300
(25.660000) can0 580#5AA65596FAFEFFFF
(25.700000) can0 173#0C0C040000000000
(25.740000) can0 147#0000000000000000
(25.780000) can0 44B#400200000000FFFF
(25.820000) can0 501#00FF00FF00000300
(25.860000) can0 580#5AA65596FAFEFFFF
(25.900000) can0 173#0C0C040000000000
(25.940000) can0 147#0000000000000000
(25.980000) can0 040#0FFEFF0300000000
(26.020000) can0 44B#400200000000FFFF
(26.060000) can0 040#0FFEFF0300000000
(26.100000) can0 173#0C0C040000000000
(26.140000) can0 147#0000000000000000
(26.180000) can0 570#FFFFFFFFFFFFFFFF
(26.230000) can0 504#0000000000000000
(26.270000) can0 180#FCFCFCC4FFFFFFFF
(26.310000) can0 44B#400200000000FFFF
(26.350000) can0 147#0000000000000000
(26.390000) can0 440#480200000000FFFF
(26.430000) can0 504#0000000000000000
(26.470000) can0 580#5AA65596FAFEFFFF
(26.510000) can0 448#4B0200000000FFFF
(26.550000) can0 147#0000000000000000
(26.590000) can0 44B#400200000000FFFF
(26.630000) can0 504#0000000000000000
(26.670000) can0 009#FF07333303000000
(26.710000) can0 145#010100FF00000000
(26.750000) can0 00F#160A0A0A0A0A0000
(26.790000) can0 00F#160A0A0A0A0A0000
(26.830000) can0 008#3F0F000000000000
(26.870000) can0 183#160A0A0A0A0A00FF
(26.920000) can0 145#010100FF00000000
(26.960000) can0 440#480200000000FFFF
(27.000000) can0 00F#FFFF0AFFFFFF0000
(27.040000) can0 009#FCFF033303000000
(27.080000) can0 173#0C0C040000000000
(27.120000) can0 145#010100FF00000000
(27.160000) can0 44B#400200000000FFFF
(27.200000) can0 570#FFFFFFFFFFFFFFFF
(27.240000) can0 440#480200000000FFFF
(27.280000) can0 173#0C0C040000000000
(27.320000) can0 448#4B0200000000FFFF
(27.360000) can0 147#0000000000000000
(27.400000) can0 171#0200000000000000
(27.440000) can0 580#5AA65596FAFEFFFF
(27.480000) can0 173#0C0C040000000000
(27.520000) can0 440#480200000000FFFF
(27.560000) can0 147#0000000000000000
