(340.080000) can0 504#0000000000000000
(340.120000) can0 173#0D0C040000000000
(340.240000) can0 171#0200000000000000
(340.250000) can0 501#00FF00FF00000300
(340.260000) can0 504#0000000000000000
(340.310000) can0 173#0D0C040000000000
(340.440000) can0 171#0200000000000000
(340.450000) can0 501#00FF00FF00000300
(340.460000) can0 504#0000000000000000
(340.510000) can0 173#0D0C040000000000
(340.610000) can0 570#FFFFFFFFFFFFFFFF
(340.640000) can0 171#0200000000000000
(340.650000) can0 501#00FF00FF00000300
(340.670000) can0 504#0000000000000000
(340.710000) can0 173#0D0C040000000000
(340.840000) can0 171#0200000000000000
(340.850000) can0 501#00FF00FF00000300
(340.860000) can0 504#0000000000000000
(340.900000) can0 440#4004000000000000
(340.940000) can0 173#0D0C040000000000
(341.040000) can0 171#0200000000000000
(341.050000) can0 501#00FF00FF00000300
(341.070000) can0 504#0000000000000000
(341.110000) can0 173#0D0C040000000000
(341.240000) can0 171#0200000000000000
(341.250000) can0 501#00FF00FF00000300
(341.260000) can0 504#0000000000000000
(341.310000) can0 173#0D0C040000000000
(341.440000) can0 171#0200000000000000
(341.450000) can0 501#00FF00FF00000300
(341.460000) can0 504#0000000000000000
(341.510000) can0 173#0D0C040000000000
(341.560000) can0 100#FF0000FF00000000
(341.610000) can0 570#FFFFFFFFFFFFFFFF
(341.640000) can0 171#0200000000000000
(341.670000) can0 501#00FF00FF00000300
(341.710000) can0 00F#FFFFFFFFFFFF0000
(341.750000) can0 00F#FFFFFFFFFF090000
(341.790000) can0 00F#FFFFFFFFFF090000
(341.830000) can0 00F#FFFFFFFFFF090000
(341.870000) can0 171#0200000000000000
(341.920000) can0 504#0000000000000000
(341.960000) can0 00F#FFFFFFFFFF080000
(342.000000) can0 00F#FFFFFFFFFF080000
(342.040000) can0 00F#FFFFFFFFFF080000
(342.080000) can0 171#0200000000000000
(342.120000) can0 504#0000000000000000
(342.170000) can0 173#0D0C040000000000
(342.210000) can0 00F#FFFFFFFFFFFF0000
(342.250000) can0 00F#FFFFFFFFFF070000
(342.290000) can0 00F#FFFFFFFFFF070000
(342.330000) can0 504#0000000000000000
(342.370000) can0 173#0D0C040000000000
(342.420000) can0 504#0000000000000000
(342.460000) can0 00F#FFFFFFFFFFFF0000
(342.500000) can0 00F#FFFFFFFFFF060000
(342.540000) can0 00F#FFFFFFFFFF060000
(342.580000) can0 00F#FFFFFFFFFF060000
(342.620000) can0 570#FFFFFFFFFFFFFFFF
(342.670000) can0 171#0200000000000000
(342.710000) can0 00F#FFFFFFFFFFFF0000
(342.750000) can0 00F#FFFFFFFFFF050000
(342.790000) can0 00F#FFFFFFFFFF050000
(342.830000) can0 00F#FFFFFFFFFF050000
(342.870000) can0 171#0200000000000000
(342.920000) can0 504#0000000000000000
(342.960000) can0 173#0D0C040000000000
(343.000000) can0 00F#FFFFFFFFFF040000
(343.040000) can0 00F#FFFFFFFFFF040000
(343.080000) can0 00F#FFFFFFFFFF040000
(343.120000) can0 504#0000000000000000
(343.160000) can0 173#0D0C040000000000
(343.200000) can0 00F#FFFFFFFFFFFF0000
(343.250000) can0 00F#FFFFFFFFFF030000
(343.290000) can0 171#0200000000000000
(343.330000) can0 00F#FFFFFFFFFF030000
(343.370000) can0 173#0D0C040000000000
(343.410000) can0 171#0200000000000000
(343.450000) can0 171#0200000000000000
(343.500000) can0 504#0000000000000000
(343.540000) can0 00F#FFFFFFFFFFFF0000
(343.580000) can0 00F#FFFFFFFFFF020000
(343.620000) can0 100#FF0000FF00000000
(343.660000) can0 570#FFFFFFFFFFFFFFFF
(343.700000) can0 504#0000000000000000
(343.750000) can0 00F#FFFFFFFFFFFF0000
(343.790000) can0 00F#FFFFFFFFFF010000
(343.830000) can0 00F#FFFFFFFFFF010000
(343.870000) can0 00F#FFFFFFFFFF010000
(343.910000) can0 504#0000000000000000
(343.950000) can0 173#0D0C040000000000
(344.000000) can0 00F#FFFFFFFFFFFF0000
(344.040000) can0 00F#FFFFFFFFFF000000
(344.080000) can0 171#0200000000000000
(344.120000) can0 504#0000000000000000
(344.160000) can0 173#0D0C040000000000
(344.200000) can0 501#00FF00FF00000300
(344.250000) can0 171#0200000000000000
(344.290000) can0 501#00FF00FF00000300
(344.330000) can0 173#0D0C040000000000
(344.370000) can0 504#0000000000000000
(344.440000) can0 171#0200000000000000
(344.450000) can0 501#00FF00FF00000300
(344.500000) can0 504#0000000000000000
(344.540000) can0 173#0D0C040000000000
(344.610000) can0 570#FFFFFFFFFFFFFFFF
(344.640000) can0 171#0200000000000000
(344.660000) can0 501#00FF00FF00000300
(344.700000) can0 504#0000000000000000
(344.740000) can0 173#0D0C040000000000
(344.840000) can0 171#0200000000000000
(344.850000) can0 501#00FF00FF00000300
(344.870000) can0 504#0000000000000000
(344.910000) can0 440#4004000000000000
(344.950000) can0 00F#FFFFFFFFFF010000
(344.990000) can0 00F#FFFFFFFFFF010000
(345.040000) can0 00F#FFFFFFFFFF010000
(345.080000) can0 171#0200000000000000
(345.120000) can0 504#0000000000000000
(345.160000) can0 00F#FFFFFFFFFF020000
(345.200000) can0 00F#FFFFFFFFFF020000
(345.240000) can0 00F#FFFFFFFFFF020000
(345.290000) can0 171#0200000000000000
(345.330000) can0 504#0000000000000000
(345.370000) can0 00F#FFFFFFFFFFFF0000
(345.410000) can0 00F#FFFFFFFFFF030000
(345.450000) can0 00F#FFFFFFFFFF030000
(345.490000) can0 501#00FF00FF00000300
(345.540000) can0 504#0000000000000000
(345.580000) can0 00F#FFFFFFFFFFFF0000
(345.620000) can0 100#FF0000FF00000000
(345.660000) can0 570#FFFFFFFFFFFFFFFF
(345.700000) can0 501#00FF00FF00000300
(345.740000) can0 504#0000000000000000
(345.790000) can0 173#0D0C040000000000
(345.830000) can0 00F#FFFFFFFFFFFF0000
(345.870000) can0 00F#FFFFFFFFFF050000
(345.910000) can0 504#0000000000000000
(345.950000) can0 440#4004000000000000
(345.990000) can0 173#0D0C040000000000
(346.030000) can0 00F#FFFFFFFFFFFF0000
(346.080000) can0 00F#FFFFFFFFFF060000
(346.120000) can0 504#0000000000000000
(346.160000) can0 173#0D0C040000000000
(346.200000) can0 00F#FFFFFFFFFFFF0000
(346.240000) can0 171#0200000000000000
(346.280000) can0 501#00FF00FF00000300
(346.330000) can0 00F#FFFFFFFFFFFF0000
(346.370000) can0 00F#FFFFFFFFFF070000
(346.410000) can0 00F#FFFFFFFFFF070000
(346.450000) can0 171#0200000000000000
(346.490000) can0 501#00FF00FF00000300
(346.530000) can0 00F#FFFFFFFFFF080000
(346.580000) can0 00F#FFFFFFFFFF080000
(346.620000) can0 00F#FFFFFFFFFF080000
(346.660000) can0 570#FFFFFFFFFFFFFFFF
(346.700000) can0 501#00FF00FF00000300
(346.740000) can0 504#0000000000000000
(346.780000) can0 00F#FFFFFFFFFFFF0000
(346.820000) can0 00F#FFFFFFFFFF090000
(346.870000) can0 00F#FFFFFFFFFF090000
(346.910000) can0 504#0000000000000000
(346.950000) can0 440#4004000000000000
(346.990000) can0 00F#FFFFFFFFFFFF0000
(347.030000) can0 00F#FFFFFFFFFF0A0000
(347.070000) can0 00F#FFFFFFFFFF0A0000
(347.120000) can0 504#0000000000000000
(347.160000) can0 173#0D0C040000000000
(347.200000) can0 504#0000000000000000
(347.240000) can0 00F#FFFFFFFFFFFF0000
(347.280000) can0 171#0200000000000000
(347.320000) can0 00F#FFFFFFFFFF0B0000
(347.360000) can0 173#0D0C040000000000
(347.410000) can0 00F#FFFFFFFFFFFF0000
(347.450000) can0 00F#FFFFFFFFFF0C0000
(347.490000) can0 171#0200000000000000
(347.530000) can0 00F#FFFFFFFFFF0C0000
(347.570000) can0 173#0D0C040000000000
(347.610000) can0 100#FF0000FF00000000
(347.660000) can0 570#FFFFFFFFFFFFFFFF
(347.700000) can0 501#00FF00FF00000300
(347.740000) can0 00F#FFFFFFFFFF0D0000
(347.780000) can0 173#0D0C040000000000
(347.820000) can0 00F#FFFFFFFFFF0B0000
(347.860000) can0 171#0200000000000000
(347.910000) can0 504#0000000000000000
(347.950000) can0 440#4004000000000000
(347.990000) can0 00F#FFFFFFFFFF0E0000
(348.030000) can0 00F#FFFFFFFFFF0E0000
(348.070000) can0 171#0200000000000000
(348.110000) can0 504#0000000000000000
(348.160000) can0 00F#FFFFFFFFFF0F0000
(348.200000) can0 00F#FFFFFFFFFF0F0000
(348.240000) can0 00F#FFFFFFFFFF0F0000
(348.280000) can0 171#0200000000000000
(348.320000) can0 00F#FFFFFFFFFFFF0000
(348.360000) can0 00F#FFFFFFFFFF100000
(348.410000) can0 00F#FFFFFFFFFF100000
(348.450000) can0 00F#FFFFFFFFFF100000
(348.490000) can0 171#0200000000000000
(348.530000) can0 504#0000000000000000
(348.570000) can0 173#0D0C040000000000
(348.610000) can0 00F#FFFFFFFFFF110000
(348.660000) can0 570#FFFFFFFFFFFFFFFF
(348.700000) can0 501#00FF00FF00000300
(348.740000) can0 504#0000000000000000
(348.780000) can0 173#0D0C040000000000
(348.820000) can0 00F#FFFFFFFFFF120000
(348.860000) can0 00F#FFFFFFFFFF120000
(348.910000) can0 504#0000000000000000
(348.950000) can0 440#4004000000000000
(348.990000) can0 173#0D0C040000000000
(349.030000) can0 00F#FFFFFFFFFFFF0000
(349.070000) can0 00F#FFFFFFFFFF130000
(349.110000) can0 00F#FFFFFFFFFF130000
(349.150000) can0 173#0D0C040000000000
(349.200000) can0 501#00FF00FF00000300
(349.240000) can0 00F#FFFFFFFFFFFF0000
(349.280000) can0 171#0200000000000000
(349.320000) can0 504#0000000000000000
(349.360000) can0 00F#FFFFFFFFFF140000
(349.400000) can0 501#00FF00FF00000300
(349.450000) can0 171#0200000000000000
(349.490000) can0 501#00FF00FF00000300
(349.530000) can0 173#0D0C040000000000
(349.570000) can0 100#FF0000FF00000000
(349.610000) can0 570#FFFFFFFFFFFFFFFF
(349.650000) can0 171#0200000000000000
(349.690000) can0 501#00FF00FF00000300
(349.740000) can0 504#0000000000000000
(349.780000) can0 173#0D0C040000000000
(349.820000) can0 504#0000000000000000
(349.860000) can0 171#0200000000000000
(349.900000) can0 00F#FFFFFFFFFFFF0000
(349.940000) can0 00F#FFFFFFFFFF130000
(349.990000) can0 00F#FFFFFFFFFF130000
(350.030000) can0 00F#FFFFFFFFFF130000
(350.070000) can0 171#0200000000000000
(350.110000) can0 00F#FFFFFFFFFFFF0000
(350.150000) can0 173#0D0C040000000000
(350.190000) can0 00F#FFFFFFFFFF120000
(350.240000) can0 00F#FFFFFFFFFF120000
(350.280000) can0 171#0200000000000000
(350.320000) can0 504#0000000000000000
(350.360000) can0 173#0D0C040000000000
(350.400000) can0 00F#FFFFFFFFFF110000
(350.440000) can0 00F#FFFFFFFFFF110000
(350.480000) can0 171#0200000000000000
(350.530000) can0 504#0000000000000000
(350.570000) can0 173#0D0C040000000000
(350.610000) can0 00F#FFFFFFFFFF100000
(350.650000) can0 570#FFFFFFFFFFFFFFFF
(350.690000) can0 501#00FF00FF00000300
(350.730000) can0 504#0000000000000000
(350.780000) can0 173#0D0C040000000000
(350.820000) can0 00F#FFFFFFFFFFFF0000
(350.860000) can0 00F#FFFFFFFFFF0F0000
(350.900000) can0 504#0000000000000000
(350.940000) can0 440#4004000000000000
(350.980000) can0 173#0D0C040000000000
(351.030000) can0 00F#FFFFFFFFFFFF0000
(351.070000) can0 00F#FFFFFFFFFF0E0000
(351.110000) can0 504#0000000000000000
(351.150000) can0 00F#FFFFFFFFFF0E0000
(351.190000) can0 173#0D0C040000000000
(351.230000) can0 00F#FFFFFFFFFFFF0000
(351.280000) can0 00F#FFFFFFFFFF0D0000
(351.320000) can0 504#0000000000000000
(351.360000) can0 173#0D0C040000000000
(351.400000) can0 00F#FFFFFFFFFFFF0000
(351.440000) can0 00F#FFFFFFFFFF0C0000
(351.480000) can0 00F#FFFFFFFFFF0C0000
(351.520000) can0 00F#FFFFFFFFFF0C0000
(351.570000) can0 173#0D0C040000000000
(351.610000) can0 100#FF0000FF00000000
(351.650000) can0 570#FFFFFFFFFFFFFFFF
(351.690000) can0 501#00FF00FF00000300
(351.730000) can0 00F#FFFFFFFFFF0B0000
(351.770000) can0 00F#FFFFFFFFFF0B0000
(351.820000) can0 00F#FFFFFFFFFF0B0000
(351.860000) can0 171#0200000000000000
(351.900000) can0 501#00FF00FF00000300
(351.940000) can0 440#4004000000000000
(351.980000) can0 00F#FFFFFFFFFFFF0000
(352.020000) can0 00F#FFFFFFFFFF0A0000
(352.070000) can0 00F#FFFFFFFFFF0A0000
(352.110000) can0 504#0000000000000000
(352.150000) can0 173#0D0C040000000000
(352.190000) can0 501#00FF00FF00000300
(352.240000) can0 171#0200000000000000
(352.270000) can0 501#00FF00FF00000300
(352.320000) can0 173#0D0C040000000000
(352.360000) can0 504#0000000000000000
(352.440000) can0 171#0200000000000000
(352.450000) can0 501#00FF00FF00000300
(352.480000) can0 504#0000000000000000
(352.520000) can0 173#0D0C040000000000
(352.610000) can0 570#FFFFFFFFFFFFFFFF
(352.640000) can0 171#0200000000000000
(352.650000) can0 501#00FF00FF00000300
(352.690000) can0 504#0000000000000000
(352.730000) can0 173#0D0C040000000000
(352.840000) can0 171#0200000000000000
(352.850000) can0 501#00FF00FF00000300
(352.860000) can0 504#0000000000000000
(352.900000) can0 440#4004000000000000
(352.940000) can0 173#0D0C040000000000
(353.040000) can0 171#0200000000000000
(353.050000) can0 501#00FF00FF00000300
(353.060000) can0 504#0000000000000000
(353.110000) can0 173#0D0C040000000000
(353.240000) can0 171#0200000000000000
(353.250000) can0 501#00FF00FF00000300
(353.260000) can0 504#0000000000000000
(353.310000) can0 173#0D0C040000000000
(353.440000) can0 171#0200000000000000
(353.450000) can0 501#00FF00FF00000300
(353.460000) can0 504#0000000000000000
(353.510000) can0 173#0D0C040000000000
(353.560000) can0 100#FF0000FF00000000
(353.610000) can0 570#FFFFFFFFFFFFFFFF
(353.640000) can0 171#0200000000000000
(353.660000) can0 501#00FF00FF00000300
(353.700000) can0 504#0000000000000000
(353.750000) can0 173#0D0C040000000000
(353.840000) can0 171#0200000000000000
(353.850000) can0 501#00FF00FF00000300
(353.870000) can0 504#0000000000000000
(353.910000) can0 440#4004000000000000
(353.950000) can0 173#0D0C040000000000
(354.040000) can0 171#0200000000000000
(354.050000) can0 501#00FF00FF00000300
(354.080000) can0 504#0000000000000000
(354.120000) can0 173#0D0C040000000000
